EXPLAIN
TAG	EISPOT
TITLE	LABEL	Potentiostatic EIS	Test Identifier
DATE	LABEL	5/25/2021	Date
TIME	LABEL	6:34:16	Time
NOTES	NOTES	1	Notes...
	
PSTAT	PSTAT	REF600-17047	Potentiostat
VDC	POTEN	0.00000E+000	F	DC Voltage (V)
FREQINIT	QUANT	1.00000E+006	Initial Freq. (Hz)
FREQFINAL	QUANT	1.00000E-001	Final Freq. (Hz)
PTSPERDEC	QUANT	1.00000E+001	Points/decade
VAC	QUANT	1.00000E+001	AC Voltage (mV rms)
AREA	QUANT	4.00000E-002	Sample Area (cm^2)
SPEED	SELECTOR	1	Optimize for:
ZGUESS	QUANT	1.00000E+002	Estimated Z (ohms)
EOC	QUANT	0	Open Circuit (V)
SEQUENCER	TOGGLE	TRUE	Run as Sequence
PSTATMODEL	IQUANT	4	Pstat Model
PSTATSECTION	LABEL	REF600-17047	Pstat Section
PSTATSERIALNO	LABEL	17047	Pstat Serial Number
CTRLMODE	IQUANT	1	Control Mode
ELECTROMETER	IQUANT	0	RE=0 or CS=1
IESTAB	IQUANT	0	I/E Stability
CASPEED	IQUANT	3	Control Amp Speed
CONVENTION	IQUANT	1	Current Convention
ICHRANGE	IQUANT	2	Ich Range
ICHRANGEMODE	TOGGLE	F	Ich Auto Range
ICHOFFSETENABLE	TOGGLE	T	Ich Offset Enable
ICHOFFSET	QUANT	0	Ich Offset (V)
ICHFILTER	IQUANT	3	Ich Filter
VCHRANGE	IQUANT	2	Vch Range
VCHRANGEMODE	TOGGLE	F	Vch Auto Range
VCHOFFSETENABLE	TOGGLE	T	Vch Offset Enable
VCHOFFSET	QUANT	0	Vch Offset (V)
VCHFILTER	IQUANT	3	Vch Filter
ACHRANGE	IQUANT	2	Ach Range
ACHOFFSETENABLE	TOGGLE	F	Ach Offset Enable
ACHOFFSET	QUANT	0	Ach Offset (V)
ACHFILTER	IQUANT	1	Ach Filter
IERANGELOWERLIMIT	IQUANT	1	I/E Range Lower Limit
IERANGEMODE	TOGGLE	F	I/E AutoRange
IERANGE	IQUANT	10	I/E Range
POSFEEDENABLE	TOGGLE	F	Positive Feedback IR Comp
POSFEEDRESISTANCE	QUANT	0	Positive Feedback Resistance (ohm)
ACHSELECT	IQUANT	0	Ach Select
SENSECABLEID	IQUANT	13	Sense Cable ID
PWRCABLEID	IQUANT	13	Power Cable ID
DCCALDATE	LABEL	4/26/2021	DC Calibration Date
ACCALDATE	LABEL	4/26/2021	AC Calibration Date
THERMOSELECT	IQUANT	1	Thermo Select
FRAMEWORKVERSION	QUANT	7.06	Framework Version
INSTRUMENTVERSION	LABEL	4.30	Instrument Version
ZCURVE	TABLE
	Pt	Time	Freq	Zreal	Zimag	Zsig	Zmod	Zphz	Idc	Vdc	IERange
	#	s	Hz	ohm	ohm	V	ohm	°	A	V	#
	0	3	1000078	83.98654	-36.44371	1	91.55263	-23.45714	5.029488E-007	-0.0002922	9
	1	4	794390.6	85.31995	-48.64425	1	98.2128	-29.68916	1.228177E-006	-0.0001632	9
	2	6	630984.4	86.73805	-63.52365	1	107.5116	-36.21763	-1.7147E-007	-0.0002076	9
	3	7	501234.4	88.06065	-81.74973	1	120.157	-42.87161	-6.816515E-008	-0.000199	9
	4	9	398109.4	89.73707	-103.8958	1	137.2847	-49.18212	3.529054E-007	-0.0001627	9
	5	10	316265.6	92.30501	-130.9723	1	160.231	-54.82507	1.444922E-007	-0.0001269	9
	6	11	251203.1	95.9779	-164.0314	1	190.0475	-59.6673	-2.505128E-008	-5.653128E-005	8
	7	13	199546.9	99.7682	-205.8014	1	228.7092	-64.13688	1.994504E-007	-1.705383E-005	8
	8	14	158578.1	106.1456	-258.0217	1	279.0019	-67.6386	3.328618E-007	-2.888667E-005	8
	9	16	125953.1	113.7752	-321.8464	1	341.3648	-70.53111	-1.380143E-007	-9.065028E-006	8
	10	17	100078.1	124.9896	-399.2245	1	418.3332	-72.61565	7.371815E-008	-7.260394E-005	8
	11	18	79453.13	146.1605	-495.3142	1	516.4291	-73.55939	1.364482E-008	-8.681004E-005	7
	12	20	63140.62	167.9792	-615.1501	1	637.6729	-74.72659	-5.649952E-010	-8.731155E-005	7
	13	21	50203.12	199.4368	-761.1847	1	786.8781	-75.31805	-5.758181E-009	-0.0000982	7
	14	23	39890.62	243.5068	-939.8242	1	970.858	-75.47419	-4.617604E-010	-0.0000988	7
	15	24	31640.63	304.3608	-1158.535	1	1197.847	-75.28034	-4.659242E-009	-0.000095	7
	16	25	25171.88	377.5533	-1422.52	1	1471.771	-75.13573	-2.540173E-009	-0.0000952	7
	17	27	20015.62	485.2259	-1737.647	1	1804.123	-74.39797	3.260603E-009	-9.039533E-005	7
	18	28	15890.62	636.5743	-2115.61	1	2209.306	-73.25378	-3.349701E-009	-0.0001003	7
	19	30	12609.37	830.1292	-2569.478	1	2700.246	-72.09575	3.394977E-009	-8.447027E-005	7
	20	31	10078.13	1093.772	-3076.897	1	3265.522	-70.43078	5.865665E-009	-9.01147E-005	7
	21	32	8015.625	1464.273	-3663.839	1	3945.607	-68.21561	2.411266E-009	-8.133502E-005	7
	22	34	6328.125	1988.268	-4337.177	1	4771.196	-65.37212	-1.788873E-009	-8.586515E-005	6
	23	35	5015.625	2632.548	-5089.376	1	5729.927	-62.64913	-3.136051E-009	-0.0000981	6
	24	37	3984.375	3493.574	-5818.219	1	6786.511	-59.01711	-1.640086E-009	-8.54495E-005	6
	25	38	3170.956	4581.346	-6450.658	1	7911.998	-54.61711	-5.013536E-010	-8.406512E-005	6
	26	40	2527.573	5764.473	-7283.32	1	9288.482	-51.63971	-1.491805E-009	-8.772608E-005	6
	27	41	1976.103	7347.039	-7911.305	1	10796.65	-47.11788	-7.003225E-010	-7.857371E-005	6
	28	42	1577.524	8959.046	-8237.558	1	12170.53	-42.59755	-3.0203E-009	-9.014707E-005	6
	29	44	1265.625	10617.18	-8377.874	1	13524.54	-38.2765	-1.751547E-009	-9.478767E-005	6
	30	45	998.264	12269.66	-7862.182	1	14572.52	-32.65104	-3.943459E-010	-8.692815E-005	6
	31	47	796.875	13428.59	-6933.707	1	15113.02	-27.30907	-1.490574E-009	-8.885033E-005	6
	32	48	627.7902	15051.74	-6740.706	1	16492.18	-24.12454	-1.314775E-009	-9.320768E-005	6
	33	49	505.5147	16395.35	-6289.94	1	17560.49	-20.9889	-1.700708E-009	-3.278031E-005	6
	34	51	397.9953	16804.47	-5110.167	1	17564.29	-16.91429	-3.633563E-009	-3.748122E-005	6
	35	52	315.5048	17686.54	-4515.021	1	18253.74	-14.32062	-2.021374E-009	-3.749985E-005	6
	36	54	252.4038	18001.65	-3828.411	1	18404.24	-12.00622	-2.45639E-009	-4.137865E-005	6
	37	55	198.6229	18228.19	-3152.316	1	18498.75	-9.81148	-2.682405E-009	-3.952048E-005	6
	38	56	158.3615	18375.6	-2651.604	1	18565.93	-8.211118	-2.547111E-009	-4.235779E-005	6
	39	58	125.558	19259.88	-2396.975	1	19408.47	-7.094228	-2.387751E-009	-3.525973E-005	6
	40	59	100.4464	19757.21	-2090.337	1	19867.48	-6.039497	-3.504606E-009	-4.114879E-005	6
	41	61	79.00281	19532.02	-1638.811	1	19600.65	-4.796101	2.576606E-012	-3.942023E-005	6
	42	62	63.3446	17708.29	-1140.628	1	17744.99	-3.685448	-2.124837E-009	-4.116145E-005	6
	43	64	49.86702	19056.13	-1129.248	1	19089.56	-3.391328	-5.96974E-010	-4.040999E-005	6
	44	65	39.72458	18914.42	-925.7463	1	18937.06	-2.802046	-7.111041E-010	-3.557591E-005	6
	45	66	31.6723	19839.94	-863.0232	1	19858.7	-2.490755	-2.636428E-009	-3.662672E-005	6
	46	68	24.93351	20106.28	-672.2081	1	20117.52	-1.914842	-3.476551E-009	-3.421558E-005	6
	47	69	19.86229	20631.62	-765.0002	1	20645.8	-2.123498	-4.614656E-009	-3.077378E-005	6
	48	71	15.83615	19333.27	-460.3364	1	19338.75	-1.363988	1.440776E-009	-4.051188E-005	6
	49	72	12.40079	21489.4	-271.7022	1	21491.12	-0.7243831	2.863106E-009	-2.916484E-005	6
	50	73	9.93114	19777.5	-149.4332	1	19778.07	-0.4329022	2.322777E-009	-2.936996E-005	6
	51	75	7.944915	20777.8	-337.4666	1	20780.54	-0.9304985	5.117284E-009	-2.471031E-005	6
	52	77	6.317385	21008.98	-273.1423	1	21010.76	-0.7448728	2.566658E-010	-2.49498E-005	6
	53	78	5.008013	19674.48	-176.9735	1	19675.27	-0.5153664	-2.809558E-009	-2.745764E-005	6
	54	81	3.945707	20295.62	-185.0894	1	20296.46	-0.5225044	-1.411868E-009	-2.506215E-005	6
	55	83	3.158693	20149.68	-98.6158	1	20149.93	-0.2804126	3.594717E-009	-2.618384E-005	6
	56	85	2.504006	21212.09	-86.75014	1	21212.27	-0.2343187	4.255896E-009	-2.423878E-005	6
	57	88	1.998082	21123.07	17.06219	1	21123.07	0.0462807	2.803741E-009	-1.090641E-005	6
	58	91	1.584686	20314.19	60.6899	1	20314.28	0.1711742	7.794466E-009	-3.61912E-005	6
	59	95	1.266892	18572.69	29.32912	1	18572.71	0.0904787	3.309836E-009	-1.481939E-005	6
	60	99	0.999041	18875.3	-33.45052	1	18875.33	-0.1015386	1.241961E-009	-3.808514E-005	6
	61	103	0.7923428	18627.79	-15.64163	1	18627.8	-0.0481109	-1.077239E-009	-7.377293E-005	6
	62	109	0.633446	18987.98	-15.28916	1	18987.99	-0.0461347	6.925376E-009	-6.908541E-005	6
	63	117	0.5040323	19728.92	-92.32417	1	19729.14	-0.2681214	-7.527732E-009	-7.088995E-005	6
	64	126	0.400641	19451.85	-195.1126	1	19452.83	-0.5746884	3.603772E-009	-7.413294E-005	6
	65	137	0.316723	19781.37	-95.5836	1	19781.6	-0.2768511	2.630052E-010	-6.913648E-005	6
	66	151	0.2520161	20415.99	69.3248	1	20416.11	0.1945535	6.854213E-009	-7.038519E-005	6
	67	168	0.2003205	20500.39	-194.66	1	20501.32	-0.5440314	7.300595E-009	-7.201433E-005	6
	68	194	0.1588983	19847.99	-17.95269	1	19848	-0.0518246	-1.1019E-008	-7.190264E-005	6
	69	218	0.1260081	20391.79	-46.20841	1	20391.85	-0.1298337	1.469137E-008	-7.553672E-005	6
	70	256	0.1001603	19531.97	-33.45074	1	19532	-0.0981255	5.959555E-009	-7.292299E-005	6
