EXPLAIN
TAG	EISPOT
TITLE	LABEL	Potentiostatic EIS	Test Identifier
DATE	LABEL	5/25/2021	Date
TIME	LABEL	3:17:10	Time
NOTES	NOTES	1	Notes...
	
PSTAT	PSTAT	REF600-17047	Potentiostat
VDC	POTEN	0.00000E+000	F	DC Voltage (V)
FREQINIT	QUANT	1.00000E+006	Initial Freq. (Hz)
FREQFINAL	QUANT	1.00000E-001	Final Freq. (Hz)
PTSPERDEC	QUANT	1.00000E+001	Points/decade
VAC	QUANT	1.00000E+001	AC Voltage (mV rms)
AREA	QUANT	4.00000E-002	Sample Area (cm^2)
SPEED	SELECTOR	1	Optimize for:
ZGUESS	QUANT	1.00000E+002	Estimated Z (ohms)
EOC	QUANT	0	Open Circuit (V)
SEQUENCER	TOGGLE	TRUE	Run as Sequence
PSTATMODEL	IQUANT	4	Pstat Model
PSTATSECTION	LABEL	REF600-17047	Pstat Section
PSTATSERIALNO	LABEL	17047	Pstat Serial Number
CTRLMODE	IQUANT	1	Control Mode
ELECTROMETER	IQUANT	0	RE=0 or CS=1
IESTAB	IQUANT	0	I/E Stability
CASPEED	IQUANT	3	Control Amp Speed
CONVENTION	IQUANT	1	Current Convention
ICHRANGE	IQUANT	2	Ich Range
ICHRANGEMODE	TOGGLE	F	Ich Auto Range
ICHOFFSETENABLE	TOGGLE	T	Ich Offset Enable
ICHOFFSET	QUANT	0	Ich Offset (V)
ICHFILTER	IQUANT	3	Ich Filter
VCHRANGE	IQUANT	2	Vch Range
VCHRANGEMODE	TOGGLE	F	Vch Auto Range
VCHOFFSETENABLE	TOGGLE	T	Vch Offset Enable
VCHOFFSET	QUANT	0	Vch Offset (V)
VCHFILTER	IQUANT	3	Vch Filter
ACHRANGE	IQUANT	2	Ach Range
ACHOFFSETENABLE	TOGGLE	F	Ach Offset Enable
ACHOFFSET	QUANT	0	Ach Offset (V)
ACHFILTER	IQUANT	1	Ach Filter
IERANGELOWERLIMIT	IQUANT	1	I/E Range Lower Limit
IERANGEMODE	TOGGLE	F	I/E AutoRange
IERANGE	IQUANT	10	I/E Range
POSFEEDENABLE	TOGGLE	F	Positive Feedback IR Comp
POSFEEDRESISTANCE	QUANT	0	Positive Feedback Resistance (ohm)
ACHSELECT	IQUANT	0	Ach Select
SENSECABLEID	IQUANT	13	Sense Cable ID
PWRCABLEID	IQUANT	13	Power Cable ID
DCCALDATE	LABEL	4/26/2021	DC Calibration Date
ACCALDATE	LABEL	4/26/2021	AC Calibration Date
THERMOSELECT	IQUANT	1	Thermo Select
FRAMEWORKVERSION	QUANT	7.06	Framework Version
INSTRUMENTVERSION	LABEL	4.30	Instrument Version
ZCURVE	TABLE
	Pt	Time	Freq	Zreal	Zimag	Zsig	Zmod	Zphz	Idc	Vdc	IERange
	#	s	Hz	ohm	ohm	V	ohm	°	A	V	#
	0	3	1000078	83.38354	-38.00633	1	91.63676	-24.50356	5.500642E-007	-0.0002493	9
	1	5	794390.6	84.39142	-50.64822	1	98.4233	-30.97043	1.085607E-006	-0.0001717	9
	2	6	630984.4	85.43435	-66.07045	1	108.0015	-37.71649	1.454232E-006	-0.000179	9
	3	7	501234.4	86.13521	-85.04115	1	121.0424	-44.6338	2.128653E-007	-0.000165	9
	4	9	398109.4	87.23917	-108.6147	1	139.312	-51.22863	5.17681E-008	-0.0001655	9
	5	10	316265.6	87.97015	-137.6166	1	163.3312	-57.41163	4.601987E-007	-0.0001368	9
	6	12	251203.1	90.02988	-172.9168	1	194.9502	-62.49606	8.843813E-009	-2.797728E-005	8
	7	13	199546.9	91.6433	-218.032	1	236.5089	-67.20199	-7.537005E-008	2.585556E-005	8
	8	14	158578.1	94.89539	-274.1217	1	290.0825	-70.90518	-1.017787E-008	-3.765539E-005	8
	9	16	125953.1	98.152	-344.0226	1	357.7505	-74.07619	-2.721501E-008	-4.373636E-005	8
	10	17	100078.1	102.8337	-430.0553	1	442.1791	-76.55209	4.000894E-008	-6.480158E-005	8
	11	19	79453.13	113.2445	-538.7194	1	550.4933	-78.12867	2.00038E-008	-7.463973E-005	7
	12	20	63140.62	122.4302	-675.3762	1	686.3834	-79.72517	3.294517E-009	-8.307955E-005	7
	13	21	50203.12	134.0224	-845.3071	1	855.8657	-80.99081	6.171707E-009	-7.212874E-005	7
	14	23	39890.62	150.9238	-1056.773	1	1067.495	-81.87222	8.828572E-009	-6.342251E-005	7
	15	24	31640.63	174.4684	-1323.29	1	1334.742	-82.4892	7.901846E-009	-7.675063E-005	7
	16	26	25171.88	205.655	-1647.275	1	1660.063	-82.8837	-4.602971E-009	-7.913267E-005	7
	17	27	20015.62	247.7413	-2049.311	1	2064.231	-83.10696	1.188207E-008	-7.943031E-005	7
	18	28	15890.62	305.078	-2553.243	1	2571.405	-83.18623	5.589023E-009	-7.236548E-005	7
	19	30	12609.37	376.482	-3178.305	1	3200.526	-83.24458	1.283427E-008	-7.718813E-005	7
	20	31	10078.13	476.2477	-3913.383	1	3942.255	-83.06139	2.173735E-009	-6.799519E-005	7
	21	33	8015.625	650.7636	-4835.995	1	4879.583	-82.33594	5.842136E-010	-8.464086E-005	6
	22	34	6328.125	829.5081	-6023.3	1	6080.15	-82.15874	7.6788E-010	-8.771274E-005	6
	23	35	5015.625	1058.597	-7466.679	1	7541.348	-81.9306	1.226054E-009	-7.664082E-005	6
	24	37	3984.375	1349.697	-9215.578	1	9313.891	-81.6678	1.68203E-009	-7.927053E-005	6
	25	38	3170.956	1719.064	-11342.68	1	11472.21	-81.382	2.0505E-009	-7.188149E-005	6
	26	40	2527.573	2174.615	-13936.39	1	14105.03	-81.13116	1.596687E-009	-7.655261E-005	6
	27	41	1976.103	2830.711	-17391.93	1	17620.79	-80.7556	1.915169E-009	-7.025962E-005	6
	28	42	1577.524	3607.267	-21287.39	1	21590.87	-80.38228	6.542268E-010	-7.576749E-005	6
	29	44	1265.625	4484.699	-25932.06	1	26317	-80.1883	1.478085E-009	-7.211125E-005	6
	30	45	998.264	5886.732	-31995.98	1	32533	-79.5751	1.535136E-009	-6.331089E-005	6
	31	47	796.875	7420.74	-39228.58	1	39924.29	-79.28812	2.062353E-009	-6.382141E-005	6
	32	48	627.7902	9966.88	-48124.48	1	49145.75	-78.2991	2.689832E-010	-6.691706E-005	5
	33	50	505.5147	12552.11	-58272.64	1	59609.2	-77.84404	-5.028755E-011	-2.068335E-005	5
	34	51	397.9953	16342	-71815.08	1	73650.98	-77.18027	-4.801592E-011	-2.121583E-005	5
	35	52	315.5048	21171.8	-87805.61	1	90322.04	-76.44353	-6.761638E-011	-2.361616E-005	5
	36	54	252.4038	27410.48	-106184.7	1	109665.5	-75.52567	-9.330797E-011	-2.976206E-005	5
	37	55	198.6229	36189.53	-129763.3	1	134715.2	-74.41681	-4.262179E-011	-2.598063E-005	5
	38	57	158.3615	47042.43	-156275.5	1	163202.4	-73.24703	-6.345158E-011	-3.103826E-005	5
	39	58	125.558	61591.04	-188183.9	1	198006.6	-71.87715	-6.074563E-011	-2.485106E-005	5
	40	59	100.4464	79710.43	-223748	1	237522.4	-70.39151	-5.251388E-011	-2.549047E-005	5
	41	61	79.00281	106220.6	-266351.8	1	286751	-68.25799	-4.090686E-011	-2.637006E-005	5
	42	62	63.3446	135345	-311792.3	1	339901	-66.53495	-6.403308E-011	-2.694796E-005	5
	43	64	49.86702	172080.2	-375661.5	1	413198.7	-65.38879	-1.67634E-011	-2.087226E-005	5
	44	65	39.72458	223326.3	-432063.9	1	486368	-62.66635	-1.860777E-011	-3.660217E-005	4
	45	67	31.6723	282657.9	-499371.8	1	573818.5	-60.48897	-4.019003E-011	-3.721831E-005	4
	46	68	24.93351	361059.8	-576253.6	1	680023.9	-57.93022	-3.57072E-011	-3.87837E-005	4
	47	70	19.86229	454433.4	-650136.8	1	793213.4	-55.04718	-1.596758E-011	-4.22379E-005	4
	48	71	15.83615	567787.8	-699811.1	1	901176.2	-50.94604	-4.996422E-011	-4.492434E-005	4
	49	72	12.40079	708366.3	-768456.9	1	1045136	-47.33003	-6.162544E-011	-3.896649E-005	4
	50	74	9.93114	856156.5	-825467.9	1	1189286	-43.9545	-3.591549E-011	-3.741428E-005	4
	51	75	7.944915	1009221	-815038.2	1	1297233	-38.92405	-2.729497E-011	-3.737493E-005	4
	52	77	6.317385	1175774	-817994.3	1	1432326	-34.82661	-2.899182E-011	-3.386667E-005	4
	53	79	5.008013	1345542	-817717.8	1	1574531	-31.28804	-5.035068E-011	-3.533874E-005	4
	54	82	3.945707	1496787	-752694.4	1	1675387	-26.69661	1.523964E-011	-4.204025E-005	4
	55	84	3.158693	1618018	-688753.9	1	1758512	-23.05836	-1.355485E-011	-3.078584E-005	4
	56	87	2.504006	1751530	-634329.3	1	1862855	-19.90822	-2.271952E-011	-4.038585E-005	4
	57	90	1.998082	1857019	-577091.9	1	1944622	-17.26329	-8.128383E-012	-2.934133E-005	4
	58	93	1.584686	1933924	-495067.9	1	1996285	-14.35888	2.853103E-012	-1.543957E-005	4
	59	97	1.266892	1981417	-429464.8	1	2027426	-12.22948	-3.052933E-011	-2.063784E-005	4
	60	101	0.999041	1999488	-348865.2	1	2029695	-9.89718	-2.70205E-011	-4.154148E-005	4
	61	105	0.7923428	1993796	-285253.4	1	2014098	-8.142085	-1.150117E-010	-9.036408E-005	4
	62	112	0.633446	2085570	-269348.9	1	2102891	-7.358949	-5.251397E-011	-8.8224E-005	4
	63	119	0.5040323	2063308	-205611.2	1	2073527	-5.69081	-5.702749E-011	-8.196158E-005	4
	64	128	0.400641	2118222	-166697.4	1	2124772	-4.499723	-9.229924E-011	-9.473547E-005	4
	65	139	0.316723	2027268	-147859.1	1	2032653	-4.171489	-3.675237E-011	-9.023746E-005	4
	66	153	0.2520161	1971901	-101510.5	1	1974512	-2.946899	-5.525605E-011	-8.752002E-005	4
	67	170	0.2003205	2121057	-99721.6	1	2123400	-2.691782	-3.600406E-012	-8.611501E-005	4
	68	191	0.1588983	2148931	-89970.96	1	2150813	-2.397447	-3.712925E-011	-8.763104E-005	4
	69	216	0.1260081	2126172	-80192.16	1	2127684	-2.159983	-2.415833E-011	-8.62806E-005	4
	70	246	0.1001603	2151342	-78447.66	1	2152772	-2.088338	-7.921258E-011	-9.285075E-005	4
