EXPLAIN
TAG	EISPOT
TITLE	LABEL	Potentiostatic EIS	Test Identifier
DATE	LABEL	5/25/2021	Date
TIME	LABEL	4:04:33	Time
NOTES	NOTES	1	Notes...
	
PSTAT	PSTAT	REF600-17047	Potentiostat
VDC	POTEN	0.00000E+000	F	DC Voltage (V)
FREQINIT	QUANT	1.00000E+006	Initial Freq. (Hz)
FREQFINAL	QUANT	1.00000E-001	Final Freq. (Hz)
PTSPERDEC	QUANT	1.00000E+001	Points/decade
VAC	QUANT	1.00000E+001	AC Voltage (mV rms)
AREA	QUANT	4.00000E-002	Sample Area (cm^2)
SPEED	SELECTOR	1	Optimize for:
ZGUESS	QUANT	1.00000E+002	Estimated Z (ohms)
EOC	QUANT	0	Open Circuit (V)
SEQUENCER	TOGGLE	TRUE	Run as Sequence
PSTATMODEL	IQUANT	4	Pstat Model
PSTATSECTION	LABEL	REF600-17047	Pstat Section
PSTATSERIALNO	LABEL	17047	Pstat Serial Number
CTRLMODE	IQUANT	1	Control Mode
ELECTROMETER	IQUANT	0	RE=0 or CS=1
IESTAB	IQUANT	0	I/E Stability
CASPEED	IQUANT	3	Control Amp Speed
CONVENTION	IQUANT	1	Current Convention
ICHRANGE	IQUANT	2	Ich Range
ICHRANGEMODE	TOGGLE	F	Ich Auto Range
ICHOFFSETENABLE	TOGGLE	T	Ich Offset Enable
ICHOFFSET	QUANT	0	Ich Offset (V)
ICHFILTER	IQUANT	3	Ich Filter
VCHRANGE	IQUANT	2	Vch Range
VCHRANGEMODE	TOGGLE	F	Vch Auto Range
VCHOFFSETENABLE	TOGGLE	T	Vch Offset Enable
VCHOFFSET	QUANT	0	Vch Offset (V)
VCHFILTER	IQUANT	3	Vch Filter
ACHRANGE	IQUANT	2	Ach Range
ACHOFFSETENABLE	TOGGLE	F	Ach Offset Enable
ACHOFFSET	QUANT	0	Ach Offset (V)
ACHFILTER	IQUANT	1	Ach Filter
IERANGELOWERLIMIT	IQUANT	1	I/E Range Lower Limit
IERANGEMODE	TOGGLE	F	I/E AutoRange
IERANGE	IQUANT	10	I/E Range
POSFEEDENABLE	TOGGLE	F	Positive Feedback IR Comp
POSFEEDRESISTANCE	QUANT	0	Positive Feedback Resistance (ohm)
ACHSELECT	IQUANT	0	Ach Select
SENSECABLEID	IQUANT	13	Sense Cable ID
PWRCABLEID	IQUANT	13	Power Cable ID
DCCALDATE	LABEL	4/26/2021	DC Calibration Date
ACCALDATE	LABEL	4/26/2021	AC Calibration Date
THERMOSELECT	IQUANT	1	Thermo Select
FRAMEWORKVERSION	QUANT	7.06	Framework Version
INSTRUMENTVERSION	LABEL	4.30	Instrument Version
ZCURVE	TABLE
	Pt	Time	Freq	Zreal	Zimag	Zsig	Zmod	Zphz	Idc	Vdc	IERange
	#	s	Hz	ohm	ohm	V	ohm	°	A	V	#
	0	4	1000078	83.49452	-37.67201	1	91.59976	-24.28449	1.927965E-007	-0.0002259	9
	1	5	794390.6	84.54407	-50.34717	1	98.3999	-30.77439	2.597686E-007	-0.000238	9
	2	7	630984.4	85.55157	-65.68115	1	107.8568	-37.5148	2.092553E-007	-0.000198	9
	3	8	501234.4	86.2616	-84.40321	1	120.6854	-44.37612	3.775339E-007	-0.000194	9
	4	9	398109.4	87.44739	-107.9093	1	138.8937	-50.97943	-2.453667E-007	-0.0001916	9
	5	11	316265.6	89.00117	-136.364	1	162.8384	-56.86858	4.882611E-008	-0.0001681	9
	6	12	251203.1	90.58817	-171.8274	1	194.2444	-62.2016	-6.607895E-008	-7.025867E-005	8
	7	14	199546.9	92.89968	-216.278	1	235.3859	-66.75462	3.98615E-008	-6.41543E-005	8
	8	15	158578.1	96.1335	-270.7726	1	287.3316	-70.45341	8.328566E-008	-3.946076E-005	8
	9	16	125953.1	99.7045	-340.3344	1	354.6385	-73.6715	4.060344E-007	-6.127402E-005	8
	10	18	100078.1	105.1844	-425.4264	1	438.2367	-76.11243	6.196765E-008	-7.720864E-005	8
	11	19	79453.13	117.3821	-531.0981	1	543.9153	-77.53697	2.326817E-008	-7.734446E-005	7
	12	21	63140.62	128.4205	-664.8594	1	677.1484	-79.0677	8.874935E-009	-8.144363E-005	7
	13	22	50203.12	141.8164	-830.8752	1	842.8912	-80.31392	7.856276E-009	-8.489832E-005	7
	14	23	39890.62	160.8078	-1037.454	1	1049.843	-81.18913	7.787783E-009	-9.14358E-005	7
	15	25	31640.63	188.8271	-1295.759	1	1309.445	-81.70882	1.21571E-008	-8.752089E-005	7
	16	26	25171.88	224.675	-1609.271	1	1624.879	-82.05214	7.976817E-009	-8.254675E-005	7
	17	28	20015.62	275.4763	-1999.683	1	2018.568	-82.1563	3.294968E-009	-8.27523E-005	7
	18	29	15890.62	337.1117	-2484.236	1	2507.004	-82.27215	1.629115E-009	-8.513971E-005	7
	19	31	12609.37	420.9599	-3080.612	1	3109.24	-82.21883	6.559358E-009	-8.352179E-005	7
	20	32	10078.13	522.6631	-3789.983	1	3825.853	-82.14807	8.418649E-009	-8.201083E-005	7
	21	33	8015.625	707.1749	-4666.222	1	4719.504	-81.38229	1.686226E-009	-8.746199E-005	6
	22	35	6328.125	899.6171	-5790.14	1	5859.61	-81.16853	2.156958E-009	-8.276659E-005	6
	23	36	5015.625	1136.348	-7158.028	1	7247.666	-80.97948	2.224152E-009	-8.892841E-005	6
	24	38	3984.375	1442.915	-8816.933	1	8934.221	-80.70578	2.344157E-009	-8.347294E-005	6
	25	39	3170.956	1817.951	-10815.78	1	10967.5	-80.45873	1.506996E-009	-8.591201E-005	6
	26	40	2527.573	2314.712	-13258.8	1	13459.33	-80.09715	1.777494E-009	-8.518309E-005	6
	27	42	1976.103	2964.753	-16525.11	1	16788.96	-79.82883	1.662639E-009	-8.771355E-005	6
	28	43	1577.524	3791.748	-20176.92	1	20530.11	-79.35682	1.490428E-009	-8.444405E-005	6
	29	45	1265.625	4755.26	-24483.31	1	24940.83	-79.0086	1.872509E-009	-7.951048E-005	6
	30	46	998.264	5995.722	-30336.16	1	30922.99	-78.81999	9.36812E-010	-8.001589E-005	6
	31	48	796.875	7780.116	-36894.95	1	37706.34	-78.09237	1.486202E-009	-8.245582E-005	6
	32	49	627.7902	10411.46	-45349.32	1	46529.12	-77.06989	3.235354E-010	-7.918527E-005	5
	33	50	505.5147	13260.28	-54725.55	1	56309.16	-76.37945	-7.322276E-011	-2.633493E-005	5
	34	52	397.9953	17642.94	-67051.32	1	69333.63	-75.25816	-8.610679E-011	-2.926615E-005	5
	35	53	315.5048	22727.21	-81763.18	1	84863.09	-74.46599	-8.882006E-011	-3.020055E-005	5
	36	55	252.4038	29840.01	-98104	1	102541.8	-73.08197	-9.838594E-011	-3.523093E-005	5
	37	56	198.6229	39576.66	-118875.8	1	125290.7	-71.58613	-1.242077E-010	-3.528133E-005	5
	38	57	158.3615	50493.17	-142763.7	1	151430	-70.52215	-9.749333E-011	-3.784525E-005	5
	39	59	125.558	67663.25	-168739.5	1	181800.2	-68.14959	-5.956607E-011	-3.30657E-005	5
	40	60	100.4464	88470.07	-196436.9	1	215440.1	-65.75444	-9.916678E-011	-3.273355E-005	5
	41	62	79.00281	112692.6	-234458.3	1	260135.2	-64.32869	-6.494652E-011	-3.532162E-005	5
	42	63	63.3446	144964.9	-268898.1	1	305484.8	-61.67057	-1.065581E-010	-3.247923E-005	5
	43	65	49.86702	187649.8	-307687.4	1	360394.2	-58.62217	-1.159114E-010	-3.795636E-005	5
	44	66	39.72458	239347.7	-341982.3	1	417419.7	-55.01247	-4.147408E-011	-4.298483E-005	4
	45	67	31.6723	295593.8	-386707.3	1	486742.5	-52.6062	-9.848432E-011	-4.713942E-005	4
	46	69	24.93351	366585.6	-436112	1	569718.1	-49.95037	-1.415366E-010	-4.492035E-005	4
	47	70	19.86229	445325	-487742	1	660459.4	-47.60286	-3.293771E-011	-4.200298E-005	4
	48	72	15.83615	540378.1	-515655.7	1	746933.2	-43.65892	6.798118E-011	-4.555807E-005	4
	49	73	12.40079	641018.9	-516484.6	1	823202	-38.85924	-1.217314E-010	-4.010485E-005	4
	50	75	9.93114	748287.5	-519464.5	1	910921.3	-34.76855	-4.363034E-011	-4.29698E-005	4
	51	76	7.944915	852033	-526262.9	1	1001455	-31.70178	-9.418177E-011	-4.449533E-005	4
	52	78	6.317385	920435.1	-453797.6	1	1026223	-26.24446	-1.439838E-010	-3.387334E-005	4
	53	80	5.008013	1004048	-425933.4	1	1090657	-22.98744	-9.388713E-011	-4.383569E-005	4
	54	82	3.945707	1090536	-380342	1	1154958	-19.22705	-5.739314E-011	-4.881927E-005	4
	55	85	3.158693	1147326	-354102.1	1	1200727	-17.15193	1.541618E-011	-4.095788E-005	4
	56	88	2.504006	1222597	-307781.2	1	1260743	-14.13024	-8.387745E-011	-4.880737E-005	4
	57	91	1.998082	1285676	-290068	1	1317992	-12.71393	-1.395449E-010	-5.342256E-005	4
	58	94	1.584686	1326809	-249893.8	1	1350136	-10.66625	-2.043789E-011	-1.702565E-005	4
	59	98	1.266892	1284795	-182684.3	1	1297718	-8.092608	-1.162224E-010	-4.326788E-005	4
	60	102	0.999041	1263384	-152930.1	1	1272606	-6.901958	-3.772676E-011	-2.115405E-005	4
	61	106	0.7923428	1379024	-154862.7	1	1387692	-6.4074	9.427829E-011	-8.986509E-005	4
	62	113	0.633446	1418840	-139698.3	1	1425701	-5.623188	-1.967585E-010	-8.988949E-005	4
	63	120	0.5040323	1375770	-92132.93	1	1378851	-3.831278	-8.925717E-011	-8.831153E-005	4
	64	129	0.400641	1402526	-91023.22	1	1405477	-3.713258	-3.053453E-011	-8.773E-005	4
	65	140	0.316723	1421390	-68905.55	1	1423059	-2.775388	-1.03876E-011	-9.250009E-005	4
	66	154	0.2520161	1423320	-61176.75	1	1424635	-2.461156	7.025176E-011	-9.199358E-005	4
	67	175	0.2003205	1418403	-40379.84	1	1418977	-1.630686	-9.38312E-011	-9.097808E-005	4
	68	196	0.1588983	1261462	-23895.4	1	1261688	-1.085202	-8.454119E-011	-9.310157E-005	4
	69	221	0.1260081	1299619	-25817.91	1	1299876	-1.138074	-6.00273E-011	-8.692676E-005	4
	70	251	0.1001603	1290776	-34435.3	1	1291235	-1.528173	-5.099553E-011	-8.868711E-005	4
