EXPLAIN
TAG	EISPOT
TITLE	LABEL	Potentiostatic EIS	Test Identifier
DATE	LABEL	5/6/2021	Date
TIME	LABEL	19:45:13	Time
NOTES	NOTES	1	Notes...
	
PSTAT	PSTAT	REF600-17047	Potentiostat
VDC	POTEN	0.00000E+000	F	DC Voltage (V)
FREQINIT	QUANT	1.00000E+006	Initial Freq. (Hz)
FREQFINAL	QUANT	1.00000E-001	Final Freq. (Hz)
PTSPERDEC	QUANT	1.00000E+001	Points/decade
VAC	QUANT	4.00000E+001	A Real Number
AREA	QUANT	4.00000E-002	Sample Area (cm^2)
SPEED	SELECTOR	2	Optimize for:
ZGUESS	QUANT	1.00000E+003	Estimated Z (ohms)
EOC	QUANT	0	Open Circuit (V)
SEQUENCER	TOGGLE	TRUE	Run as Sequence
PSTATMODEL	IQUANT	4	Pstat Model
PSTATSECTION	LABEL	REF600-17047	Pstat Section
PSTATSERIALNO	LABEL	17047	Pstat Serial Number
CTRLMODE	IQUANT	1	Control Mode
ELECTROMETER	IQUANT	0	RE=0 or CS=1
IESTAB	IQUANT	0	I/E Stability
CASPEED	IQUANT	3	Control Amp Speed
CONVENTION	IQUANT	1	Current Convention
ICHRANGE	IQUANT	2	Ich Range
ICHRANGEMODE	TOGGLE	F	Ich Auto Range
ICHOFFSETENABLE	TOGGLE	T	Ich Offset Enable
ICHOFFSET	QUANT	0	Ich Offset (V)
ICHFILTER	IQUANT	3	Ich Filter
VCHRANGE	IQUANT	2	Vch Range
VCHRANGEMODE	TOGGLE	F	Vch Auto Range
VCHOFFSETENABLE	TOGGLE	T	Vch Offset Enable
VCHOFFSET	QUANT	0	Vch Offset (V)
VCHFILTER	IQUANT	3	Vch Filter
ACHRANGE	IQUANT	2	Ach Range
ACHOFFSETENABLE	TOGGLE	F	Ach Offset Enable
ACHOFFSET	QUANT	0	Ach Offset (V)
ACHFILTER	IQUANT	1	Ach Filter
IERANGELOWERLIMIT	IQUANT	1	I/E Range Lower Limit
IERANGEMODE	TOGGLE	F	I/E AutoRange
IERANGE	IQUANT	10	I/E Range
POSFEEDENABLE	TOGGLE	F	Positive Feedback IR Comp
POSFEEDRESISTANCE	QUANT	0	Positive Feedback Resistance (ohm)
ACHSELECT	IQUANT	0	Ach Select
SENSECABLEID	IQUANT	13	Sense Cable ID
PWRCABLEID	IQUANT	13	Power Cable ID
DCCALDATE	LABEL	4/26/2021	DC Calibration Date
ACCALDATE	LABEL	4/26/2021	AC Calibration Date
THERMOSELECT	IQUANT	1	Thermo Select
FRAMEWORKVERSION	QUANT	7.06	Framework Version
INSTRUMENTVERSION	LABEL	4.30	Instrument Version
ZCURVE	TABLE
	Pt	Time	Freq	Zreal	Zimag	Zsig	Zmod	Zphz	Idc	Vdc	IERange
	#	s	Hz	ohm	ohm	V	ohm	°	A	V	#
	0	8	1000078	89.91721	-63.70184	1	110.1954	-35.31566	4.728824E-007	-0.000151	9
	1	11	794390.6	91.10105	-83.0219	1	123.256	-42.34343	-1.174558E-007	-0.0001784	9
	2	14	630984.4	91.90972	-106.9785	1	141.0383	-49.33274	-2.526144E-008	-0.0001872	9
	3	17	501234.4	93.0344	-136.6474	1	165.3116	-55.75158	2.416748E-007	-0.0001877	9
	4	20	398109.4	93.76745	-173.1011	1	196.8663	-61.55596	-1.194616E-007	-0.0001852	9
	5	23	316265.6	95.4058	-218.5827	1	238.4967	-66.41995	6.104904E-007	-0.0001503	9
	6	26	251203.1	97.6461	-275.5318	1	292.3227	-70.48612	6.611253E-008	-7.284898E-005	8
	7	29	199546.9	100.5567	-346.1799	1	360.4888	-73.80272	7.646872E-008	-3.92716E-005	8
	8	32	158578.1	103.5777	-435.2201	1	447.3755	-76.61326	9.618384E-008	-2.740993E-005	8
	9	34	125953.1	107.7915	-546.8366	1	557.3592	-78.84892	-4.736935E-008	6.448536E-007	8
	10	37	100078.1	113.0664	-684.1221	1	693.4025	-80.61543	4.205003E-008	-5.409578E-005	8
	11	39	79453.13	116.7681	-861.1265	1	869.0072	-82.27784	3.537099E-008	-6.826781E-005	8
	12	42	63140.62	128.2638	-1078.001	1	1085.605	-83.21468	6.141957E-008	-6.127556E-005	8
	13	45	50203.12	141.5894	-1353.251	1	1360.638	-84.02693	2.900015E-008	-7.047888E-005	8
	14	47	39890.62	155.4937	-1697.341	1	1704.449	-84.76573	2.97953E-008	-7.253357E-005	8
	15	50	31640.63	194.6906	-2128.358	1	2137.244	-84.77344	3.046438E-009	-7.998291E-005	7
	16	52	25171.88	225.1789	-2662.075	1	2671.582	-85.16499	-4.059189E-010	-8.458784E-005	7
	17	55	20015.62	272.0898	-3326.183	1	3337.293	-85.32348	5.168356E-009	-9.062709E-005	7
	18	57	15890.62	333.8619	-4162.226	1	4175.595	-85.41399	4.204416E-009	-9.017406E-005	7
	19	59	12609.37	422.9362	-5206.103	1	5223.253	-85.35558	8.270707E-009	-8.938491E-005	7
	20	62	10078.13	552.0072	-6458.708	1	6482.255	-85.11497	6.365713E-009	-8.365829E-005	7
	21	64	8015.625	713.2714	-8051.759	1	8083.29	-84.93762	9.655212E-009	-8.719759E-005	7
	22	67	6328.125	931.3221	-10097.79	1	10140.65	-84.73051	4.617995E-010	-8.365061E-005	7
	23	69	5015.625	1233.269	-12590.22	1	12650.48	-84.40546	6.3212E-009	-0.0000951	7
	24	71	3984.375	1693.033	-15665.24	1	15756.47	-83.83166	6.847188E-009	-0.0000995	7
	25	74	3170.956	2442.448	-19377.21	1	19530.54	-82.8159	5.289174E-010	-0.0000967	6
	26	76	2527.573	3252.506	-23927.84	1	24147.89	-82.25924	-2.43185E-010	-9.438999E-005	6
	27	79	1976.103	4498.782	-30025.85	1	30361.01	-81.47874	7.917818E-010	-0.0001024	6
	28	81	1577.524	6074.553	-36846.84	1	37344.21	-80.63845	8.367724E-010	-0.0000984	6
	29	83	1265.625	8085.371	-44916.73	1	45638.64	-79.79558	1.202273E-009	-9.49837E-005	6
	30	86	998.264	10920.53	-55492.67	1	56557	-78.8669	2.382032E-010	-0.0000974	6
	31	88	796.875	14601.93	-67609.88	1	69168.73	-77.81283	1.517459E-009	-8.324932E-005	6
	32	90	627.7902	19961.1	-82838.83	1	85209.84	-76.4521	1.312476E-009	-8.549317E-005	6
	33	93	505.5147	26164.22	-99814	1	103186.3	-75.31155	3.904816E-010	-3.604993E-005	6
	34	95	397.9953	36118.96	-121160.5	1	126429.6	-73.40025	3.512302E-010	-3.686643E-005	6
	35	98	315.5048	48130.49	-145936.7	1	153668.7	-71.74724	3.152096E-010	-3.938598E-005	6
	36	100	252.4038	64077.09	-173239.4	1	184710	-69.70178	9.987061E-011	-3.470425E-005	5
	37	102	198.6229	85775.98	-206351.5	1	223469.2	-67.42838	9.525192E-011	-2.777021E-005	5
	38	105	158.3615	112979	-240430.3	1	265652	-64.83102	6.985135E-011	-2.824262E-005	5
	39	107	125.558	146408.9	-280581.1	1	316482.7	-62.44418	1.75917E-010	-2.927186E-005	5
	40	110	100.4464	188443.2	-317733.8	1	369412.5	-59.32845	6.556167E-011	-3.597869E-005	5
	41	112	79.00281	242462	-360027.9	1	434059.8	-56.04157	7.772727E-011	-3.902579E-005	5
	42	115	63.3446	300399.5	-401805.8	1	501684.9	-53.21734	9.649381E-011	-3.683608E-005	5
	43	118	49.86702	373608.3	-440949.5	1	577944.3	-49.72602	1.440628E-010	-3.952746E-005	5
	44	120	39.72458	453032.8	-445247.1	1	635203.7	-44.50341	1.768222E-010	-2.833649E-005	5
	45	123	31.6723	539203.6	-502771.8	1	737238.1	-42.99752	6.396372E-011	-3.636858E-005	5
	46	125	24.93351	629988.9	-493988.5	1	800568.9	-38.1008	1.218688E-010	-3.270709E-005	5
	47	128	19.86229	731091.6	-514076.7	1	893739.2	-35.11348	4.441347E-010	-4.384591E-005	5
	48	130	15.83615	803029.3	-479122	1	935101	-30.82213	-4.400405E-011	-4.606976E-005	5
	49	132	12.40079	937207.4	-534854.5	1	1079086	-29.71295	8.105183E-013	-4.631784E-005	5
	50	135	9.93114	1030603	-515712.6	1	1152433	-26.58332	-2.866177E-011	-4.819292E-005	5
	51	137	7.944915	1101123	-472995.1	1	1198414	-23.24628	2.009323E-010	-3.946232E-005	5
	52	140	6.317385	1170830	-438829	1	1250365	-20.54608	3.005177E-011	-3.726283E-005	5
	53	143	5.008013	1225582	-384601	1	1284511	-17.42243	4.186174E-010	-3.488494E-005	5
	54	146	3.945707	1317369	-367380.3	1	1367636	-15.58242	1.346309E-010	-3.519608E-005	5
	55	150	3.158693	1334991	-315521.8	1	1371771	-13.29769	-4.645877E-011	-1.170821E-005	5
	56	154	2.504006	1411235	-289183.6	1	1440560	-11.58047	3.543522E-011	-4.036355E-005	5
	57	158	1.998082	1481234	-262124.3	1	1504249	-10.03536	1.425129E-010	-0.0001027	4
	58	162	1.584686	1481756	-220648.9	1	1498094	-8.469704	6.560535E-011	-9.22739E-005	4
	59	168	1.266892	1540396	-195155.2	1	1552709	-7.220425	1.471227E-010	3.008E-005	4
	60	174	0.999041	1525175	-163183.3	1	1533880	-6.107025	9.218662E-011	-7.022423E-005	4
	61	180	0.7923428	1590914	-151096.2	1	1598073	-5.425363	4.788671E-011	-0.0001003	4
	62	188	0.633446	1609915	-116777	1	1614145	-4.148748	8.526266E-011	-0.0000998	4
	63	198	0.5040323	1578459	-103363	1	1581839	-3.746578	-1.720168E-011	-0.0001012	4
	64	210	0.400641	1597316	-91706.02	1	1599947	-3.28589	8.620841E-011	-0.000106	4
	65	225	0.316723	1622383	-71913.79	1	1623976	-2.538033	5.929833E-011	-0.0001096	4
	66	246	0.2520161	1506955	-60341.96	1	1508162	-2.293031	7.586388E-011	-0.0001094	4
	67	268	0.2003205	1566323	-46264.74	1	1567006	-1.691863	3.178667E-011	-0.000099	4
	68	295	0.1588983	1577958	-41084.74	1	1578492	-1.491453	2.058927E-010	-0.0001047	4
	69	327	0.1260081	1557035	-38234.98	1	1557504	-1.406689	2.323311E-010	-0.0001025	4
	70	366	0.1001603	1526735	-18455.81	1	1526846	-0.6925818	1.499234E-010	-0.0001057	4
