EXPLAIN
TAG	EISPOT
TITLE	LABEL	Potentiostatic EIS	Test Identifier
DATE	LABEL	5/25/2021	Date
TIME	LABEL	7:16:50	Time
NOTES	NOTES	1	Notes...
	
PSTAT	PSTAT	REF600-17047	Potentiostat
VDC	POTEN	0.00000E+000	F	DC Voltage (V)
FREQINIT	QUANT	1.00000E+006	Initial Freq. (Hz)
FREQFINAL	QUANT	1.00000E-001	Final Freq. (Hz)
PTSPERDEC	QUANT	1.00000E+001	Points/decade
VAC	QUANT	1.00000E+001	AC Voltage (mV rms)
AREA	QUANT	4.00000E-002	Sample Area (cm^2)
SPEED	SELECTOR	1	Optimize for:
ZGUESS	QUANT	1.00000E+002	Estimated Z (ohms)
EOC	QUANT	0	Open Circuit (V)
SEQUENCER	TOGGLE	TRUE	Run as Sequence
PSTATMODEL	IQUANT	4	Pstat Model
PSTATSECTION	LABEL	REF600-17047	Pstat Section
PSTATSERIALNO	LABEL	17047	Pstat Serial Number
CTRLMODE	IQUANT	1	Control Mode
ELECTROMETER	IQUANT	0	RE=0 or CS=1
IESTAB	IQUANT	0	I/E Stability
CASPEED	IQUANT	3	Control Amp Speed
CONVENTION	IQUANT	1	Current Convention
ICHRANGE	IQUANT	2	Ich Range
ICHRANGEMODE	TOGGLE	F	Ich Auto Range
ICHOFFSETENABLE	TOGGLE	T	Ich Offset Enable
ICHOFFSET	QUANT	0	Ich Offset (V)
ICHFILTER	IQUANT	3	Ich Filter
VCHRANGE	IQUANT	2	Vch Range
VCHRANGEMODE	TOGGLE	F	Vch Auto Range
VCHOFFSETENABLE	TOGGLE	T	Vch Offset Enable
VCHOFFSET	QUANT	0	Vch Offset (V)
VCHFILTER	IQUANT	3	Vch Filter
ACHRANGE	IQUANT	2	Ach Range
ACHOFFSETENABLE	TOGGLE	F	Ach Offset Enable
ACHOFFSET	QUANT	0	Ach Offset (V)
ACHFILTER	IQUANT	1	Ach Filter
IERANGELOWERLIMIT	IQUANT	1	I/E Range Lower Limit
IERANGEMODE	TOGGLE	F	I/E AutoRange
IERANGE	IQUANT	10	I/E Range
POSFEEDENABLE	TOGGLE	F	Positive Feedback IR Comp
POSFEEDRESISTANCE	QUANT	0	Positive Feedback Resistance (ohm)
ACHSELECT	IQUANT	0	Ach Select
SENSECABLEID	IQUANT	13	Sense Cable ID
PWRCABLEID	IQUANT	13	Power Cable ID
DCCALDATE	LABEL	4/26/2021	DC Calibration Date
ACCALDATE	LABEL	4/26/2021	AC Calibration Date
THERMOSELECT	IQUANT	1	Thermo Select
FRAMEWORKVERSION	QUANT	7.06	Framework Version
INSTRUMENTVERSION	LABEL	4.30	Instrument Version
ZCURVE	TABLE
	Pt	Time	Freq	Zreal	Zimag	Zsig	Zmod	Zphz	Idc	Vdc	IERange
	#	s	Hz	ohm	ohm	V	ohm	°	A	V	#
	0	3	1000078	84.27717	-35.99605	1	91.64255	-23.12806	1.136251E-006	-0.000232	9
	1	5	794390.6	85.80946	-48.08396	1	98.3633	-29.26441	-9.901954E-007	-0.0002021	9
	2	6	630984.4	87.20361	-62.54705	1	107.3154	-35.6501	6.752965E-007	-0.0001774	9
	3	7	501234.4	88.52127	-80.46363	1	119.6261	-42.27005	3.039404E-007	-0.0001746	9
	4	9	398109.4	90.62909	-102.0781	1	136.5048	-48.40002	7.691555E-007	-0.0001288	9
	5	10	316265.6	93.04653	-128.9152	1	158.9867	-54.17954	7.166454E-007	-0.0001202	9
	6	12	251203.1	96.6719	-161.9951	1	188.6474	-59.17301	3.58349E-008	-6.515058E-005	8
	7	13	199546.9	101.5461	-202.1562	1	226.2271	-63.32894	1.207977E-008	-5.304928E-005	8
	8	14	158578.1	107.8779	-252.5755	1	274.6489	-66.8721	6.418844E-008	-1.933884E-005	8
	9	16	125953.1	116.2963	-314.8119	1	335.606	-69.725	4.485653E-008	-1.77775E-005	8
	10	17	100078.1	127.9644	-391.0422	1	411.4473	-71.87986	5.898305E-008	-7.78047E-005	8
	11	19	79453.13	148.1762	-483.2766	1	505.4824	-72.95407	7.442395E-009	-7.132095E-005	7
	12	20	63140.62	170.5181	-599.1606	1	622.9526	-74.11392	1.053962E-008	-7.527963E-005	7
	13	21	50203.12	201.0182	-740.0845	1	766.8986	-74.80421	6.123102E-009	-7.082646E-005	7
	14	23	39890.62	241.7599	-911.6976	1	943.2075	-75.14838	2.655779E-009	-7.625065E-005	7
	15	24	31640.63	298.6106	-1121.668	1	1160.736	-75.09248	1.014961E-009	-7.049361E-005	7
	16	26	25171.88	372.1587	-1372.229	1	1421.8	-74.82597	7.676835E-009	-7.15811E-005	7
	17	27	20015.62	472.9761	-1674.002	1	1739.537	-74.22278	8.320631E-009	-6.766549E-005	7
	18	28	15890.62	606.6648	-2039.344	1	2127.667	-73.43329	4.576389E-009	-6.944518E-005	7
	19	30	12609.37	789.2009	-2473.255	1	2596.118	-72.30243	1.755694E-009	-7.147175E-005	7
	20	31	10078.13	1023.059	-2968.791	1	3140.123	-70.98581	-9.45092E-010	-7.244047E-005	7
	21	33	8015.625	1339.661	-3553.235	1	3797.39	-69.34227	1.541009E-009	-6.927489E-005	7
	22	34	6328.125	1782.098	-4262.325	1	4619.879	-67.30997	-1.298817E-009	-7.796975E-005	6
	23	36	5015.625	2365.259	-5041.349	1	5568.631	-64.86536	-6.974687E-010	-7.674407E-005	6
	24	37	3984.375	3159.745	-5822.415	1	6624.538	-61.51192	-2.683473E-010	-6.919869E-005	6
	25	38	3170.956	4150.612	-6609.011	1	7804.269	-57.87022	-9.889147E-010	-7.297764E-005	6
	26	40	2527.573	5245.573	-7666.031	1	9288.922	-55.61765	-1.051745E-009	-8.096746E-005	6
	27	41	1976.103	6876.039	-8270.519	1	10755.53	-50.26015	-6.170264E-010	-7.489401E-005	6
	28	43	1577.524	8537.602	-8637.809	1	12145.06	-45.33428	4.611422E-012	-7.044636E-005	6
	29	44	1265.625	10262.52	-8920.139	1	13597.36	-40.99702	-1.854217E-009	-6.679789E-005	6
	30	45	998.264	12170.42	-8850.104	1	15048.04	-36.02395	-2.164365E-009	-6.998803E-005	6
	31	47	796.875	14149.82	-9104.089	1	16825.63	-32.7575	-1.282578E-009	-7.107526E-005	6
	32	48	627.7902	15927.09	-8536.703	1	18070.63	-28.1907	-1.868661E-009	-7.59915E-005	6
	33	50	505.5147	17031.27	-7497.038	1	18608.32	-23.75874	-2.282654E-009	-2.134814E-005	6
	34	51	397.9953	18601.03	-6969.227	1	19863.75	-20.53941	-1.736103E-009	-2.237973E-005	6
	35	52	315.5048	19396.81	-5992.821	1	20301.48	-17.16901	-1.929801E-009	-2.420088E-005	6
	36	54	252.4038	21559.75	-6068.094	1	22397.43	-15.71951	-1.836796E-009	-2.200183E-005	6
	37	55	198.6229	21612.48	-4889.335	1	22158.63	-12.7473	-3.031282E-009	-2.412195E-005	6
	38	57	158.3615	22037.61	-4169.974	1	22428.66	-10.71487	-1.271513E-009	-2.715336E-005	6
	39	58	125.558	22676.5	-3600.816	1	22960.61	-9.0227	-3.248625E-009	-2.635939E-005	6
	40	60	100.4464	22288.63	-2887.374	1	22474.88	-7.381256	-3.38453E-009	-3.256966E-005	6
	41	61	79.00281	23219.81	-2554.729	1	23359.93	-6.278641	-1.395811E-009	-3.395252E-005	6
	42	62	63.3446	23206.29	-2200.883	1	23310.42	-5.417723	-3.456573E-009	-3.076129E-005	6
	43	64	49.86702	23896.19	-1902.91	1	23971.84	-4.552989	-3.191847E-009	-3.812913E-005	6
	44	65	39.72458	23540.09	-1536.051	1	23590.15	-3.733404	2.543592E-010	-3.189556E-005	7
	45	67	31.6723	24824.46	-1395.097	1	24863.63	-3.216551	-2.723295E-009	-3.114205E-005	6
	46	69	24.93351	24584.23	-1161.53	1	24611.66	-2.70504	-2.581255E-009	-3.233625E-005	6
	47	70	19.86229	24391.82	-872.7148	1	24407.42	-2.049112	-4.546432E-009	-2.492665E-005	6
	48	71	15.83615	24131.08	-835.0521	1	24145.52	-1.98192	-2.862958E-009	-3.05455E-005	6
	49	73	12.40079	24495.28	-618.6597	1	24503.09	-1.446771	-1.810539E-009	-2.473285E-005	6
	50	74	9.93114	24606.12	-535.9234	1	24611.95	-1.24771	-2.193139E-009	-2.501444E-005	6
	51	76	7.944915	24337.77	-461.4173	1	24342.15	-1.086134	-1.978016E-009	-2.196842E-005	6
	52	77	6.317385	24676.1	-302.7555	1	24677.96	-0.7029369	-3.934765E-009	-2.14488E-005	6
	53	79	5.008013	24688.27	-250.1625	1	24689.54	-0.5805495	-2.525368E-009	-2.208199E-005	6
	54	82	3.945707	24803.13	-312.9163	1	24805.1	-0.7228054	-1.48052E-009	-1.706588E-005	6
	55	84	3.158693	25041.55	-140.2966	1	25041.94	-0.3209994	-5.305613E-010	-1.159482E-005	6
	56	86	2.504006	25482.5	-159.1283	1	25483	-0.3577851	-1.559171E-010	-2.090996E-005	6
	57	89	1.998082	25348.24	-177.3787	1	25348.86	-0.4009305	1.807414E-009	2.214278E-006	6
	58	92	1.584686	25495.78	-155.8215	1	25496.25	-0.3501679	-1.350174E-009	-7.561041E-006	6
	59	96	1.266892	25545.06	-157.5945	1	25545.55	-0.3534689	-3.178031E-010	-3.797839E-006	6
	60	100	0.999041	25465.07	-129.7744	1	25465.4	-0.2919866	-4.020411E-009	-3.378968E-005	6
	61	104	0.7923428	24922.46	-59.94316	1	24922.53	-0.1378068	-2.836708E-009	-7.482705E-005	6
	62	110	0.633446	25299.01	-207.2762	1	25299.86	-0.4694169	-5.184926E-009	-8.063838E-005	6
	63	118	0.5040323	28092.64	-366.6219	1	28095.03	-0.747694	8.209552E-009	-7.889274E-005	6
	64	127	0.400641	24455.3	244.4962	1	24456.53	0.5728056	-5.422215E-010	-7.662999E-005	6
	65	150	0.316723	24072.62	-63.3821	1	24072.7	-0.1508568	5.493713E-010	-7.291591E-005	6
	66	171	0.2520161	23530.35	124.356	1	23530.67	0.3028007	-1.536398E-009	-7.71407E-005	7
	67	196	0.2003205	22663.73	184.0852	1	22664.47	0.4653725	-8.403066E-009	-7.946078E-005	6
	68	217	0.1588983	21400.92	42.13073	1	21400.96	0.1127947	-2.825366E-009	-7.199825E-005	6
	69	241	0.1260081	21708.48	-119.7071	1	21708.81	-0.3159429	-2.806021E-009	-6.966641E-005	6
	70	271	0.1001603	22438.2	-134.2061	1	22438.6	-0.3426903	4.622249E-009	-7.908968E-005	6
