EXPLAIN
TAG	EISPOT
TITLE	LABEL	Potentiostatic EIS	Test Identifier
DATE	LABEL	5/25/2021	Date
TIME	LABEL	4:58:22	Time
NOTES	NOTES	1	Notes...
	
PSTAT	PSTAT	REF600-17047	Potentiostat
VDC	POTEN	0.00000E+000	F	DC Voltage (V)
FREQINIT	QUANT	1.00000E+006	Initial Freq. (Hz)
FREQFINAL	QUANT	1.00000E-001	Final Freq. (Hz)
PTSPERDEC	QUANT	1.00000E+001	Points/decade
VAC	QUANT	1.00000E+001	AC Voltage (mV rms)
AREA	QUANT	4.00000E-002	Sample Area (cm^2)
SPEED	SELECTOR	1	Optimize for:
ZGUESS	QUANT	1.00000E+002	Estimated Z (ohms)
EOC	QUANT	0	Open Circuit (V)
SEQUENCER	TOGGLE	TRUE	Run as Sequence
PSTATMODEL	IQUANT	4	Pstat Model
PSTATSECTION	LABEL	REF600-17047	Pstat Section
PSTATSERIALNO	LABEL	17047	Pstat Serial Number
CTRLMODE	IQUANT	1	Control Mode
ELECTROMETER	IQUANT	0	RE=0 or CS=1
IESTAB	IQUANT	0	I/E Stability
CASPEED	IQUANT	3	Control Amp Speed
CONVENTION	IQUANT	1	Current Convention
ICHRANGE	IQUANT	2	Ich Range
ICHRANGEMODE	TOGGLE	F	Ich Auto Range
ICHOFFSETENABLE	TOGGLE	T	Ich Offset Enable
ICHOFFSET	QUANT	0	Ich Offset (V)
ICHFILTER	IQUANT	3	Ich Filter
VCHRANGE	IQUANT	2	Vch Range
VCHRANGEMODE	TOGGLE	F	Vch Auto Range
VCHOFFSETENABLE	TOGGLE	T	Vch Offset Enable
VCHOFFSET	QUANT	0	Vch Offset (V)
VCHFILTER	IQUANT	3	Vch Filter
ACHRANGE	IQUANT	2	Ach Range
ACHOFFSETENABLE	TOGGLE	F	Ach Offset Enable
ACHOFFSET	QUANT	0	Ach Offset (V)
ACHFILTER	IQUANT	1	Ach Filter
IERANGELOWERLIMIT	IQUANT	1	I/E Range Lower Limit
IERANGEMODE	TOGGLE	F	I/E AutoRange
IERANGE	IQUANT	10	I/E Range
POSFEEDENABLE	TOGGLE	F	Positive Feedback IR Comp
POSFEEDRESISTANCE	QUANT	0	Positive Feedback Resistance (ohm)
ACHSELECT	IQUANT	0	Ach Select
SENSECABLEID	IQUANT	13	Sense Cable ID
PWRCABLEID	IQUANT	13	Power Cable ID
DCCALDATE	LABEL	4/26/2021	DC Calibration Date
ACCALDATE	LABEL	4/26/2021	AC Calibration Date
THERMOSELECT	IQUANT	1	Thermo Select
FRAMEWORKVERSION	QUANT	7.06	Framework Version
INSTRUMENTVERSION	LABEL	4.30	Instrument Version
ZCURVE	TABLE
	Pt	Time	Freq	Zreal	Zimag	Zsig	Zmod	Zphz	Idc	Vdc	IERange
	#	s	Hz	ohm	ohm	V	ohm	°	A	V	#
	0	3	1000078	83.39462	-37.28833	1	91.35142	-24.09091	6.61209E-007	-0.0002677	9
	1	5	794390.6	84.59249	-49.80293	1	98.1643	-30.487	-2.773824E-007	-0.0002489	9
	2	6	630984.4	85.70947	-64.87403	1	107.493	-37.12231	6.168189E-007	-0.0001823	9
	3	8	501234.4	86.82816	-83.64639	1	120.5647	-43.93074	2.29175E-007	-0.0001566	9
	4	9	398109.4	87.91768	-106.6769	1	138.237	-50.50638	-6.900763E-008	-0.0001894	9
	5	10	316265.6	89.47426	-135.0464	1	161.9974	-56.47375	3.57861E-007	-0.0001644	9
	6	12	251203.1	91.80074	-169.6593	1	192.9032	-61.58268	1.011603E-008	-4.793134E-005	8
	7	13	199546.9	94.10821	-213.0045	1	232.8675	-66.16352	-1.492267E-007	-1.752293E-005	8
	8	15	158578.1	98.1688	-266.9187	1	284.3988	-69.80722	1.376179E-009	-4.670808E-005	8
	9	16	125953.1	102.4444	-334.836	1	350.1571	-72.9883	3.826868E-007	-7.194703E-005	8
	10	17	100078.1	109.5533	-418.3729	1	432.4787	-75.32625	6.841638E-008	-8.211722E-005	8
	11	19	79453.13	122.6376	-521.0195	1	535.2581	-76.75481	1.688437E-008	-9.227415E-005	7
	12	20	63140.62	135.4194	-651.0641	1	664.9985	-78.25018	5.624745E-009	-0.0001023	7
	13	22	50203.12	151.0317	-811.6808	1	825.6127	-79.45937	6.818645E-009	-9.473893E-005	7
	14	23	39890.62	174.4352	-1011.315	1	1026.248	-80.21371	3.777874E-009	-0.000097	7
	15	24	31640.63	205.3113	-1258.837	1	1275.47	-80.73685	2.249536E-009	-8.470765E-005	7
	16	26	25171.88	245.718	-1562.386	1	1581.59	-81.06225	9.989641E-009	-8.10061E-005	7
	17	27	20015.62	298.4293	-1933.458	1	1956.354	-81.22564	9.208279E-009	-7.857337E-005	7
	18	29	15890.62	369.8313	-2392.291	1	2420.709	-81.21204	6.811071E-009	-8.029368E-005	7
	19	30	12609.37	458.7762	-2960.024	1	2995.366	-81.18979	2.042007E-009	-9.401389E-005	7
	20	31	10078.13	571.7213	-3636.562	1	3681.229	-81.06539	9.603658E-009	-7.909443E-005	7
	21	33	8015.625	755.7293	-4453.828	1	4517.489	-80.36973	1.498082E-009	-8.256589E-005	6
	22	34	6328.125	948.8059	-5515.483	1	5596.498	-80.23918	2.07477E-009	-8.167909E-005	6
	23	36	5015.625	1202.36	-6795.558	1	6901.106	-79.96632	1.503123E-009	-8.878461E-005	6
	24	37	3984.375	1505.111	-8350.815	1	8485.368	-79.78297	9.480472E-010	-8.680888E-005	6
	25	39	3170.956	1874.66	-10235.57	1	10405.83	-79.62122	1.884546E-009	-7.396673E-005	6
	26	40	2527.573	2345.152	-12526.9	1	12744.53	-79.39644	2.46524E-009	-8.522447E-005	6
	27	41	1976.103	3001.328	-15576.72	1	15863.24	-79.09389	2.35007E-009	-8.399319E-005	6
	28	43	1577.524	3803.445	-19009.24	1	19386.01	-78.68544	1.596692E-009	-7.556513E-005	6
	29	44	1265.625	4804.744	-23042.18	1	23537.79	-78.22149	1.692798E-009	-7.704715E-005	6
	30	46	998.264	6211.737	-28434.08	1	29104.69	-77.67672	4.764324E-010	-8.336127E-005	6
	31	47	796.875	7952.573	-34571.74	1	35474.62	-77.04555	1.964793E-009	-7.927837E-005	6
	32	48	627.7902	10695.44	-42323.82	1	43654.3	-75.81798	2.347475E-010	-7.917406E-005	5
	33	50	505.5147	13917.9	-50790.2	1	52662.63	-74.67558	-8.891132E-011	-2.3628E-005	5
	34	51	397.9953	17932.27	-62299.04	1	64828.52	-73.94197	-7.312045E-011	-2.133466E-005	5
	35	53	315.5048	23325.36	-75503.54	1	79024.41	-72.83247	-8.580237E-011	-2.4842E-005	5
	36	54	252.4038	30756.16	-89892.27	1	95008.2	-71.11189	-5.844097E-011	-2.779155E-005	5
	37	55	198.6229	40858.58	-107972.1	1	115444.3	-69.27245	-1.256912E-010	-2.85307E-005	5
	38	57	158.3615	52675.73	-127946.3	1	138365.4	-67.62294	-1.287901E-010	-2.847012E-005	5
	39	58	125.558	67842.83	-151350.1	1	165859.9	-65.85565	-6.229162E-011	-2.84147E-005	5
	40	60	100.4464	87988.75	-174396.2	1	195335.7	-63.22752	-1.302173E-010	-2.718562E-005	5
	41	61	79.00281	114249.8	-202042.2	1	232107.9	-60.51292	-1.127604E-010	-3.085305E-005	5
	42	63	63.3446	142912.8	-230968.7	1	271607.5	-58.25268	-9.004207E-011	-3.447783E-005	5
	43	64	49.86702	180672.3	-261407.1	1	317767.4	-55.34959	-1.169574E-010	-3.580223E-005	5
	44	66	39.72458	225935	-288386.3	1	366351.3	-51.92323	-6.760872E-011	-2.572798E-005	5
	45	67	31.6723	277085.5	-324698.4	1	426855.3	-49.5238	-1.118056E-010	-4.032974E-005	4
	46	68	24.93351	339748.8	-350085.5	1	487841.2	-45.85847	-6.113846E-011	-4.373046E-005	4
	47	70	19.86229	407476	-369929	1	550349.1	-42.23489	7.646939E-011	-4.25627E-005	4
	48	71	15.83615	476426.7	-361162.7	1	597846.9	-37.16452	-7.748149E-012	-3.981919E-005	4
	49	73	12.40079	555309.9	-369108.3	1	666790.9	-33.61154	-8.504135E-011	-3.33784E-005	4
	50	74	9.93114	654245.3	-420526.4	1	777739.9	-32.73152	-1.203976E-010	-3.150917E-005	4
	51	76	7.944915	725598.9	-387267.9	1	822478.1	-28.08981	-1.245206E-010	-3.605516E-005	4
	52	77	6.317385	783177.8	-349066.5	1	857446.8	-24.02279	-5.437598E-011	-3.003865E-005	4
	53	79	5.008013	819717.4	-302546.9	1	873768.4	-20.25844	-1.047116E-010	-3.8437E-005	4
	54	82	3.945707	841663.3	-249643.9	1	877906.1	-16.52077	-8.053644E-011	-4.243271E-005	4
	55	84	3.158693	862217.1	-209659	1	887341.7	-13.66695	-2.948106E-011	-4.768089E-005	4
	56	87	2.504006	883981.6	-177762.8	1	901677.9	-11.37016	-1.922868E-010	-4.30445E-005	4
	57	90	1.998082	868869.6	-142635.4	1	880499.4	-9.322639	-9.763448E-011	-6.38374E-005	4
	58	93	1.584686	889581.8	-121689.2	1	897866.3	-7.789356	5.441265E-012	-4.587782E-005	4
	59	97	1.266892	940049.4	-113910.9	1	946925.8	-6.909159	-1.114729E-010	-6.09586E-005	4
	60	101	0.999041	1050452	-115131.4	1	1056742	-6.254758	2.140409E-011	-3.125276E-005	4
	61	105	0.7923428	1047855	-87033.98	1	1051463	-4.748044	-3.656136E-011	-8.95714E-005	4
	62	112	0.633446	1003921	-78090.38	1	1006953	-4.44782	-1.016297E-010	-8.774574E-005	4
	63	119	0.5040323	1024854	-60544.55	1	1026641	-3.380891	-1.666925E-010	-8.69052E-005	4
	64	128	0.400641	932405.8	-31534.81	1	932938.9	-1.937057	-2.421875E-010	-8.641245E-005	4
	65	142	0.316723	880624.3	-35198.33	1	881327.4	-2.288879	1.456812E-010	-9.024864E-005	4
	66	159	0.2520161	973089	-42332.16	1	974009	-2.49096	1.927723E-010	-8.750331E-005	4
	67	176	0.2003205	934471.4	-20847.55	1	934703.9	-1.278026	7.690729E-010	-9.267196E-005	4
	68	202	0.1588983	979157	-27825.41	1	979553	-1.627777	1.202049E-011	-0.0000954	4
	69	233	0.1260081	893594.3	-20976.66	1	893840.5	-1.344741	6.659737E-011	-9.144798E-005	4
	70	270	0.1001603	975027	-25243.63	1	975354	-1.483067	2.594406E-011	-8.96955E-005	4
