EXPLAIN
TAG	EISPOT
TITLE	LABEL	Potentiostatic EIS	Test Identifier
DATE	LABEL	5/24/2021	Date
TIME	LABEL	23:21:22	Time
NOTES	NOTES	1	Notes...
	
PSTAT	PSTAT	REF600-17047	Potentiostat
VDC	POTEN	0.00000E+000	F	DC Voltage (V)
FREQINIT	QUANT	1.00000E+006	Initial Freq. (Hz)
FREQFINAL	QUANT	1.00000E-001	Final Freq. (Hz)
PTSPERDEC	QUANT	1.00000E+001	Points/decade
VAC	QUANT	1.00000E+001	AC Voltage (mV rms)
AREA	QUANT	4.00000E-002	Sample Area (cm^2)
SPEED	SELECTOR	1	Optimize for:
ZGUESS	QUANT	1.00000E+002	Estimated Z (ohms)
EOC	QUANT	0	Open Circuit (V)
SEQUENCER	TOGGLE	TRUE	Run as Sequence
PSTATMODEL	IQUANT	4	Pstat Model
PSTATSECTION	LABEL	REF600-17047	Pstat Section
PSTATSERIALNO	LABEL	17047	Pstat Serial Number
CTRLMODE	IQUANT	1	Control Mode
ELECTROMETER	IQUANT	0	RE=0 or CS=1
IESTAB	IQUANT	0	I/E Stability
CASPEED	IQUANT	3	Control Amp Speed
CONVENTION	IQUANT	1	Current Convention
ICHRANGE	IQUANT	2	Ich Range
ICHRANGEMODE	TOGGLE	F	Ich Auto Range
ICHOFFSETENABLE	TOGGLE	T	Ich Offset Enable
ICHOFFSET	QUANT	0	Ich Offset (V)
ICHFILTER	IQUANT	3	Ich Filter
VCHRANGE	IQUANT	2	Vch Range
VCHRANGEMODE	TOGGLE	F	Vch Auto Range
VCHOFFSETENABLE	TOGGLE	T	Vch Offset Enable
VCHOFFSET	QUANT	0	Vch Offset (V)
VCHFILTER	IQUANT	3	Vch Filter
ACHRANGE	IQUANT	2	Ach Range
ACHOFFSETENABLE	TOGGLE	F	Ach Offset Enable
ACHOFFSET	QUANT	0	Ach Offset (V)
ACHFILTER	IQUANT	1	Ach Filter
IERANGELOWERLIMIT	IQUANT	1	I/E Range Lower Limit
IERANGEMODE	TOGGLE	F	I/E AutoRange
IERANGE	IQUANT	10	I/E Range
POSFEEDENABLE	TOGGLE	F	Positive Feedback IR Comp
POSFEEDRESISTANCE	QUANT	0	Positive Feedback Resistance (ohm)
ACHSELECT	IQUANT	0	Ach Select
SENSECABLEID	IQUANT	13	Sense Cable ID
PWRCABLEID	IQUANT	13	Power Cable ID
DCCALDATE	LABEL	4/26/2021	DC Calibration Date
ACCALDATE	LABEL	4/26/2021	AC Calibration Date
THERMOSELECT	IQUANT	1	Thermo Select
FRAMEWORKVERSION	QUANT	7.06	Framework Version
INSTRUMENTVERSION	LABEL	4.30	Instrument Version
ZCURVE	TABLE
	Pt	Time	Freq	Zreal	Zimag	Zsig	Zmod	Zphz	Idc	Vdc	IERange
	#	s	Hz	ohm	ohm	V	ohm	°	A	V	#
	0	4	1000078	99.8881	-39.22146	1	107.3124	-21.43765	1.243803E-006	-8.893946E-005	9
	1	5	794390.6	101.034	-52.16815	1	113.7075	-27.30922	1.451951E-008	-0.0001134	9
	2	6	630984.4	101.9652	-68.06122	1	122.5938	-33.72289	6.134405E-008	-0.0001162	9
	3	8	501234.4	102.4868	-87.65257	1	134.8574	-40.53894	3.846863E-007	-9.00454E-005	9
	4	9	398109.4	103.1308	-111.9197	1	152.1906	-47.34033	3.352973E-007	-0.0001025	9
	5	11	316265.6	103.7468	-141.7838	1	175.6874	-53.80611	8.224038E-008	-0.000097	9
	6	12	251203.1	104.5649	-178.4492	1	206.8283	-59.63122	4.272843E-007	-6.198694E-006	8
	7	13	199546.9	106.0705	-225.5293	1	249.2276	-64.81155	8.76206E-008	-4.817499E-006	8
	8	15	158578.1	106.4783	-284.1124	1	303.4097	-69.45524	-7.914834E-008	4.362884E-005	8
	9	16	125953.1	109.1647	-357.2833	1	373.5883	-73.00994	7.036257E-008	2.619636E-005	8
	10	18	100078.1	110.3526	-447.3555	1	460.7653	-76.14305	8.818727E-008	-2.371408E-005	8
	11	19	79453.13	117.7983	-562.6215	1	574.8212	-78.17458	2.149125E-008	-4.446937E-005	7
	12	20	63140.62	122.0397	-707.5915	1	718.0386	-80.21436	1.304899E-008	-4.29045E-005	7
	13	22	50203.12	126.7886	-888.927	1	897.9235	-81.88259	3.901157E-009	-5.497017E-005	7
	14	23	39890.62	134.3166	-1116.942	1	1124.989	-83.14288	1.176645E-008	-5.75428E-005	7
	15	25	31640.63	144.952	-1405.531	1	1412.986	-84.11192	7.669009E-009	-5.700303E-005	7
	16	26	25171.88	159.0802	-1760.508	1	1767.681	-84.83675	1.120387E-008	-5.377639E-005	7
	17	28	20015.62	180.5942	-2204.061	1	2211.447	-85.31582	3.013703E-009	-6.312177E-005	7
	18	29	15890.62	208.1513	-2763.507	1	2771.335	-85.69254	8.591016E-009	-5.742098E-005	7
	19	30	12609.37	250.3702	-3470.324	1	3479.344	-85.87348	5.935656E-009	-4.721393E-005	7
	20	32	10078.13	310.5872	-4323.818	1	4334.958	-85.8914	4.356673E-009	-5.762251E-005	7
	21	33	8015.625	419.0393	-5380.156	1	5396.45	-85.54645	1.514359E-009	-5.716358E-005	6
	22	35	6328.125	525.996	-6774.135	1	6794.526	-85.56002	1.599389E-009	-5.449704E-005	6
	23	36	5015.625	679.6707	-8483.319	1	8510.503	-85.41933	1.338092E-009	-6.106902E-005	6
	24	37	3984.375	865.7614	-10607.32	1	10642.59	-85.3339	1.360728E-009	-5.501826E-005	6
	25	39	3170.956	1140.456	-13207.69	1	13256.83	-85.06487	9.184755E-010	-5.499864E-005	6
	26	40	2527.573	1509.767	-16382.6	1	16452.02	-84.73468	2.869929E-010	-5.42456E-005	6
	27	42	1976.103	2030.624	-20717.17	1	20816.45	-84.40195	1.511836E-009	-5.524793E-005	6
	28	43	1577.524	2719.51	-25612.32	1	25756.29	-83.93906	1.688736E-009	-5.481434E-005	6
	29	44	1265.625	3633.049	-31536.75	1	31745.32	-83.42847	1.491546E-009	-5.499169E-005	6
	30	46	998.264	5034.245	-39337.73	1	39658.55	-82.70721	8.375474E-010	-6.809393E-005	6
	31	47	796.875	7004.644	-48240.76	1	48746.65	-81.73829	2.115454E-010	-6.939084E-005	5
	32	49	627.7902	9404.122	-60042.52	1	60774.51	-81.0984	2.882701E-010	-6.858895E-005	5
	33	50	505.5147	12344.78	-73144.88	1	74179.3	-80.42037	-7.356793E-011	-7.758329E-006	5
	34	52	397.9953	16749.13	-90727.72	1	92260.78	-79.54046	-7.874645E-011	-3.4571E-006	5
	35	53	315.5048	22495.19	-111565.7	1	113811	-78.6002	-1.380496E-011	-6.583109E-007	5
	36	54	252.4038	29816.12	-135753.4	1	138989.1	-77.61256	-1.024877E-010	-7.404647E-006	5
	37	56	198.6229	40874.48	-167040.6	1	171968.8	-76.25003	-8.238921E-011	-7.851057E-006	5
	38	57	158.3615	54456.21	-202662.2	1	209851	-74.95964	-4.318329E-011	-1.131277E-005	5
	39	59	125.558	73420.9	-245673.1	1	256409.7	-73.36091	-4.152496E-011	-1.500671E-005	5
	40	60	100.4464	97122.2	-293803.8	1	309440.5	-71.70776	-2.998149E-011	-1.222232E-005	5
	41	62	79.00281	134076.6	-353365.1	1	377946.3	-69.22185	-2.040623E-011	-1.702096E-005	5
	42	63	63.3446	178804.3	-419349	1	455877.8	-66.9073	-6.592117E-011	-2.861664E-005	4
	43	64	49.86702	243359.9	-477776.3	1	536184.9	-63.00755	-1.453322E-011	-3.15176E-005	4
	44	66	39.72458	317628.8	-558161.6	1	642209	-60.35742	-7.123503E-011	-2.770689E-005	4
	45	67	31.6723	405981.4	-633540.4	1	752458.8	-57.34769	-5.810255E-011	-2.889494E-005	4
	46	69	24.93351	527116.5	-700625.7	1	876771.4	-53.04399	-3.29098E-011	-2.782484E-005	4
	47	70	19.86229	658799.4	-756419.1	1	1003089	-48.94593	-3.889683E-011	-2.988661E-005	4
	48	72	15.83615	799694.6	-807553.4	1	1136510	-45.28016	3.071916E-011	-2.602118E-005	4
	49	73	12.40079	980743	-816413.3	1	1276083	-39.77547	3.290379E-011	-2.701055E-005	4
	50	75	9.93114	1117095	-798230	1	1372979	-35.54804	-3.561791E-011	-2.675922E-005	4
	51	76	7.944915	1279473	-788155.9	1	1502744	-31.63309	-4.746643E-011	-2.792728E-005	4
	52	78	6.317385	1454404	-785408.6	1	1652924	-28.36998	-4.716251E-011	-3.263161E-005	4
	53	80	5.008013	1579268	-711676.2	1	1732215	-24.25808	-1.85018E-011	-2.476553E-005	4
	54	83	3.945707	1700702	-640481.8	1	1817307	-20.6363	-5.05515E-011	-2.761036E-005	4
	55	85	3.158693	1780011	-552412.8	1	1863760	-17.24133	-5.084326E-011	-3.389341E-005	4
	56	89	2.504006	1878237	-493264.8	1	1941928	-14.7148	3.141681E-012	-2.622289E-005	4
	57	91	1.998082	1917956	-418910	1	1963171	-12.32076	-4.507249E-011	-2.371101E-005	4
	58	95	1.584686	1959171	-347766.8	1	1989798	-10.06556	-5.12368E-011	-4.33227E-005	4
	59	98	1.266892	2023192	-303257.3	1	2045793	-8.524633	-3.448285E-011	-2.76457E-005	4
	60	103	0.999041	2036830	-245528.9	1	2051576	-6.873531	-1.269421E-011	-2.975412E-005	4
	61	107	0.7923428	2093538	-210602.3	1	2104104	-5.744421	-1.170295E-011	-7.214929E-005	4
	62	113	0.633446	1948674	-146007.3	1	1954136	-4.284965	-1.744421E-010	-7.374915E-005	4
	63	122	0.5040323	2135838	-158816.7	1	2141734	-4.252575	-2.850482E-011	-7.165717E-005	4
	64	131	0.400641	2129503	-121511.2	1	2132967	-3.265804	-5.822283E-011	-7.35884E-005	4
	65	142	0.316723	2187445	-99543	1	2189708	-2.605536	-3.945844E-011	-7.415156E-005	4
	66	156	0.2520161	2162622	-84962.57	1	2164290	-2.249813	-6.277616E-011	-7.458459E-005	4
	67	173	0.2003205	2141455	-57253.94	1	2142220	-1.531495	-7.695431E-011	-7.109282E-005	4
	68	194	0.1588983	2189906	-62692.08	1	2190803	-1.639802	-7.715346E-011	-7.517441E-005	4
	69	219	0.1260081	2168847	-37374.69	1	2169169	-0.987253	-3.248351E-011	-7.400866E-005	4
	70	248	0.1001603	2211887	-28874.13	1	2212075	-0.7479008	-6.793763E-011	-7.766384E-005	4
