EXPLAIN
TAG	EISPOT
TITLE	LABEL	Potentiostatic EIS	Test Identifier
DATE	LABEL	5/25/2021	Date
TIME	LABEL	1:40:27	Time
NOTES	NOTES	1	Notes...
	
PSTAT	PSTAT	REF600-17047	Potentiostat
VDC	POTEN	0.00000E+000	F	DC Voltage (V)
FREQINIT	QUANT	1.00000E+006	Initial Freq. (Hz)
FREQFINAL	QUANT	1.00000E-001	Final Freq. (Hz)
PTSPERDEC	QUANT	1.00000E+001	Points/decade
VAC	QUANT	1.00000E+001	AC Voltage (mV rms)
AREA	QUANT	4.00000E-002	Sample Area (cm^2)
SPEED	SELECTOR	1	Optimize for:
ZGUESS	QUANT	1.00000E+002	Estimated Z (ohms)
EOC	QUANT	0	Open Circuit (V)
SEQUENCER	TOGGLE	TRUE	Run as Sequence
PSTATMODEL	IQUANT	4	Pstat Model
PSTATSECTION	LABEL	REF600-17047	Pstat Section
PSTATSERIALNO	LABEL	17047	Pstat Serial Number
CTRLMODE	IQUANT	1	Control Mode
ELECTROMETER	IQUANT	0	RE=0 or CS=1
IESTAB	IQUANT	0	I/E Stability
CASPEED	IQUANT	3	Control Amp Speed
CONVENTION	IQUANT	1	Current Convention
ICHRANGE	IQUANT	2	Ich Range
ICHRANGEMODE	TOGGLE	F	Ich Auto Range
ICHOFFSETENABLE	TOGGLE	T	Ich Offset Enable
ICHOFFSET	QUANT	0	Ich Offset (V)
ICHFILTER	IQUANT	3	Ich Filter
VCHRANGE	IQUANT	2	Vch Range
VCHRANGEMODE	TOGGLE	F	Vch Auto Range
VCHOFFSETENABLE	TOGGLE	T	Vch Offset Enable
VCHOFFSET	QUANT	0	Vch Offset (V)
VCHFILTER	IQUANT	3	Vch Filter
ACHRANGE	IQUANT	2	Ach Range
ACHOFFSETENABLE	TOGGLE	F	Ach Offset Enable
ACHOFFSET	QUANT	0	Ach Offset (V)
ACHFILTER	IQUANT	1	Ach Filter
IERANGELOWERLIMIT	IQUANT	1	I/E Range Lower Limit
IERANGEMODE	TOGGLE	F	I/E AutoRange
IERANGE	IQUANT	10	I/E Range
POSFEEDENABLE	TOGGLE	F	Positive Feedback IR Comp
POSFEEDRESISTANCE	QUANT	0	Positive Feedback Resistance (ohm)
ACHSELECT	IQUANT	0	Ach Select
SENSECABLEID	IQUANT	13	Sense Cable ID
PWRCABLEID	IQUANT	13	Power Cable ID
DCCALDATE	LABEL	4/26/2021	DC Calibration Date
ACCALDATE	LABEL	4/26/2021	AC Calibration Date
THERMOSELECT	IQUANT	1	Thermo Select
FRAMEWORKVERSION	QUANT	7.06	Framework Version
INSTRUMENTVERSION	LABEL	4.30	Instrument Version
ZCURVE	TABLE
	Pt	Time	Freq	Zreal	Zimag	Zsig	Zmod	Zphz	Idc	Vdc	IERange
	#	s	Hz	ohm	ohm	V	ohm	°	A	V	#
	0	3	1000078	84.07865	-38.53065	1	92.48692	-24.62053	1.149234E-006	-0.0001995	9
	1	5	794390.6	85.26392	-51.3451	1	99.5302	-31.05594	1.46476E-006	-0.0002069	9
	2	6	630984.4	86.04513	-67.09949	1	109.1151	-37.94773	-1.38872E-007	-0.0001816	9
	3	8	501234.4	86.65961	-86.47567	1	122.4252	-44.93913	-5.283016E-008	-0.0002	9
	4	9	398109.4	87.44274	-110.388	1	140.8252	-51.61584	2.951925E-007	-0.0001609	9
	5	10	316265.6	87.95483	-139.6559	1	165.0449	-57.79741	1.509069E-006	-0.00014	9
	6	12	251203.1	89.33597	-176.2372	1	197.5866	-63.11921	9.734924E-008	-4.531295E-005	8
	7	13	199546.9	91.16113	-221.7217	1	239.7309	-67.64993	1.016474E-007	-4.363749E-005	8
	8	15	158578.1	93.25867	-279.6484	1	294.7888	-71.55721	-1.88399E-007	-5.282603E-005	8
	9	16	125953.1	95.7633	-351.0763	1	363.9027	-74.74257	-2.006799E-008	-5.156875E-005	8
	10	17	100078.1	98.2505	-440.1224	1	450.9556	-77.41593	8.559969E-008	-7.788594E-005	8
	11	19	79453.13	107.5394	-551.7133	1	562.0963	-78.97027	2.433865E-008	-8.288425E-005	7
	12	20	63140.62	114.067	-692.9894	1	702.3145	-80.65285	1.105964E-008	-8.714908E-005	7
	13	22	50203.12	121.926	-869.168	1	877.6782	-82.01472	4.426212E-009	-9.341079E-005	7
	14	23	39890.62	134.1928	-1089.504	1	1097.737	-82.97832	5.334339E-009	-8.629284E-005	7
	15	24	31640.63	150.9339	-1366.421	1	1374.732	-83.6967	1.94483E-009	-7.704124E-005	7
	16	26	25171.88	173.9075	-1707.999	1	1716.83	-84.18621	5.681235E-009	-8.098122E-005	7
	17	27	20015.62	204.7651	-2134.285	1	2144.085	-84.51977	8.080004E-009	-8.405536E-005	7
	18	29	15890.62	248.0262	-2667.555	1	2679.061	-84.68798	6.271936E-009	-8.669127E-005	7
	19	30	12609.37	305.0254	-3334.56	1	3348.482	-84.77348	7.74718E-009	-7.691154E-005	7
	20	31	10078.13	386.9576	-4135.42	1	4153.484	-84.65431	8.558658E-009	-7.221236E-005	7
	21	33	8015.625	531.6321	-5130.491	1	5157.961	-84.08401	1.40902E-009	-8.469256E-005	6
	22	34	6328.125	688.6219	-6424.824	1	6461.622	-83.88231	1.504551E-009	-9.161375E-005	6
	23	36	5015.625	882.7689	-8008.75	1	8057.255	-83.70993	8.510126E-010	-9.061517E-005	6
	24	37	3984.375	1135.377	-9940	1	10004.64	-83.48375	2.183807E-009	-8.453934E-005	6
	25	38	3170.956	1481.039	-12299.95	1	12388.79	-83.13406	1.576063E-009	-8.736902E-005	6
	26	40	2527.573	1926.534	-15190.28	1	15311.96	-82.77196	1.27915E-009	-9.496044E-005	6
	27	41	1976.103	2553.763	-19057.52	1	19227.87	-82.36767	2.512745E-009	-8.338781E-005	6
	28	43	1577.524	3360.402	-23395.17	1	23635.28	-81.82614	1.641072E-009	-8.223629E-005	6
	29	44	1265.625	4394.317	-28642.21	1	28977.34	-81.27763	1.241232E-009	-9.213392E-005	6
	30	46	998.264	5541.539	-35447.79	1	35878.32	-81.11489	4.072316E-010	-7.545161E-005	6
	31	47	796.875	7665.012	-43257.91	1	43931.76	-79.95187	1.450129E-010	-8.012209E-005	5
	32	48	627.7902	9986.17	-53564.77	1	54487.69	-79.43949	1.761812E-010	-7.816525E-005	5
	33	50	505.5147	12730.32	-64986.27	1	66221.42	-78.91654	-5.655221E-011	-2.515906E-005	5
	34	51	397.9953	16728.36	-80280.06	1	82004.43	-78.22942	-5.602147E-011	-2.487026E-005	5
	35	53	315.5048	21865.29	-98399.3	1	100799.4	-77.47187	-7.242978E-011	-2.648581E-005	5
	36	54	252.4038	28497.07	-119352	1	122706.9	-76.57119	-7.924328E-011	-2.930703E-005	5
	37	55	198.6229	37994.24	-146410.9	1	151260.4	-75.45239	-6.568918E-011	-3.1601E-005	5
	38	57	158.3615	49733.86	-177113.3	1	183963.5	-74.31512	-5.981238E-011	-2.914655E-005	5
	39	58	125.558	66149.55	-214130.9	1	224115.6	-72.83298	-6.366245E-011	-3.074449E-005	5
	40	60	100.4464	86831.62	-255391.6	1	269749.1	-71.22227	-8.430137E-011	-4.028031E-005	5
	41	61	79.00281	115826.4	-308165.4	1	329213.8	-69.40087	-8.283041E-011	-4.214959E-005	5
	42	63	63.3446	153973.5	-358673.8	1	390326.5	-66.76686	-7.376182E-011	-4.276713E-005	5
	43	64	49.86702	201268.4	-425407.5	1	470617.2	-64.68027	-5.110105E-011	-5.442559E-005	4
	44	66	39.72458	268403.9	-482563.7	1	552185.1	-60.91701	-5.562667E-011	-4.630705E-005	4
	45	68	31.6723	335614.8	-562632.8	1	655128.2	-59.1836	-6.52968E-011	-4.809053E-005	4
	46	69	24.93351	432587.9	-636600.6	1	769670.5	-55.8028	-3.753825E-011	-5.153981E-005	4
	47	71	19.86229	539908.9	-717246	1	897743.6	-53.02929	-4.971963E-011	-4.669873E-005	4
	48	72	15.83615	675685.1	-776018.9	1	1028959	-48.95368	-1.362957E-011	-5.095705E-005	4
	49	73	12.40079	831344.4	-789344.6	1	1146385	-43.51552	-2.08715E-011	-4.859568E-005	4
	50	75	9.93114	993528	-892788.4	1	1335728	-41.94299	-4.659553E-011	-4.888225E-005	4
	51	77	7.944915	1169145	-916466	1	1485534	-38.09208	-2.709592E-011	-4.769951E-005	4
	52	78	6.317385	1348093	-897090.8	1	1619298	-33.64186	-4.712048E-011	-4.202802E-005	4
	53	80	5.008013	1521163	-854677.4	1	1744824	-29.32979	-3.473297E-011	-5.45491E-005	4
	54	83	3.945707	1670647	-780152.8	1	1843828	-25.03147	-2.197426E-011	-5.19986E-005	4
	55	86	3.158693	1825302	-739184.8	1	1969295	-22.04626	-3.099867E-011	-3.914917E-005	4
	56	89	2.504006	1956883	-661732.4	1	2065740	-18.68329	-3.819409E-011	-4.261992E-005	4
	57	92	1.998082	2020814	-565063.4	1	2098329	-15.62215	-5.168715E-011	-5.065992E-005	4
	58	95	1.584686	2068782	-471109.2	1	2121745	-12.82879	-4.39479E-011	-1.648698E-005	4
	59	98	1.266892	2093318	-404258.4	1	2131995	-10.93032	-4.226517E-012	-3.650547E-005	4
	60	103	0.999041	2136290	-339609.3	1	2163116	-9.032813	-4.804428E-011	-2.20728E-005	4
	61	107	0.7923428	2149767	-275101.1	1	2167298	-7.292384	-1.231377E-011	-8.617187E-005	4
	62	113	0.633446	2224782	-235306.2	1	2237191	-6.037497	-2.57219E-011	-8.569648E-005	4
	63	120	0.5040323	2222723	-194373.2	1	2231205	-4.997702	-9.888894E-011	-8.597848E-005	4
	64	130	0.400641	2222532	-171216.1	1	2229117	-4.405167	-8.015346E-011	-8.488465E-005	4
	65	141	0.316723	2284073	-132000.8	1	2287884	-3.307551	-9.913208E-011	-7.822864E-005	4
	66	154	0.2520161	2234442	-99737.3	1	2236666	-2.555777	6.83329E-012	-7.972275E-005	4
	67	171	0.2003205	2205471	-83314.09	1	2207044	-2.163382	-5.402582E-011	-8.118571E-005	4
	68	192	0.1588983	2242945	-80602.01	1	2244393	-2.058084	-2.170806E-011	-8.276632E-005	4
	69	217	0.1260081	2239870	-70601.39	1	2240982	-1.805383	-1.40103E-011	-8.565326E-005	4
	70	247	0.1001603	2205653	-33632.01	1	2205910	-0.8735837	-6.985931E-011	-8.843866E-005	4
