EXPLAIN
TAG	EISPOT
TITLE	LABEL	Potentiostatic EIS	Test Identifier
DATE	LABEL	5/25/2021	Date
TIME	LABEL	2:29:00	Time
NOTES	NOTES	1	Notes...
	
PSTAT	PSTAT	REF600-17047	Potentiostat
VDC	POTEN	0.00000E+000	F	DC Voltage (V)
FREQINIT	QUANT	1.00000E+006	Initial Freq. (Hz)
FREQFINAL	QUANT	1.00000E-001	Final Freq. (Hz)
PTSPERDEC	QUANT	1.00000E+001	Points/decade
VAC	QUANT	1.00000E+001	AC Voltage (mV rms)
AREA	QUANT	4.00000E-002	Sample Area (cm^2)
SPEED	SELECTOR	1	Optimize for:
ZGUESS	QUANT	1.00000E+002	Estimated Z (ohms)
EOC	QUANT	0	Open Circuit (V)
SEQUENCER	TOGGLE	TRUE	Run as Sequence
PSTATMODEL	IQUANT	4	Pstat Model
PSTATSECTION	LABEL	REF600-17047	Pstat Section
PSTATSERIALNO	LABEL	17047	Pstat Serial Number
CTRLMODE	IQUANT	1	Control Mode
ELECTROMETER	IQUANT	0	RE=0 or CS=1
IESTAB	IQUANT	0	I/E Stability
CASPEED	IQUANT	3	Control Amp Speed
CONVENTION	IQUANT	1	Current Convention
ICHRANGE	IQUANT	2	Ich Range
ICHRANGEMODE	TOGGLE	F	Ich Auto Range
ICHOFFSETENABLE	TOGGLE	T	Ich Offset Enable
ICHOFFSET	QUANT	0	Ich Offset (V)
ICHFILTER	IQUANT	3	Ich Filter
VCHRANGE	IQUANT	2	Vch Range
VCHRANGEMODE	TOGGLE	F	Vch Auto Range
VCHOFFSETENABLE	TOGGLE	T	Vch Offset Enable
VCHOFFSET	QUANT	0	Vch Offset (V)
VCHFILTER	IQUANT	3	Vch Filter
ACHRANGE	IQUANT	2	Ach Range
ACHOFFSETENABLE	TOGGLE	F	Ach Offset Enable
ACHOFFSET	QUANT	0	Ach Offset (V)
ACHFILTER	IQUANT	1	Ach Filter
IERANGELOWERLIMIT	IQUANT	1	I/E Range Lower Limit
IERANGEMODE	TOGGLE	F	I/E AutoRange
IERANGE	IQUANT	10	I/E Range
POSFEEDENABLE	TOGGLE	F	Positive Feedback IR Comp
POSFEEDRESISTANCE	QUANT	0	Positive Feedback Resistance (ohm)
ACHSELECT	IQUANT	0	Ach Select
SENSECABLEID	IQUANT	13	Sense Cable ID
PWRCABLEID	IQUANT	13	Power Cable ID
DCCALDATE	LABEL	4/26/2021	DC Calibration Date
ACCALDATE	LABEL	4/26/2021	AC Calibration Date
THERMOSELECT	IQUANT	1	Thermo Select
FRAMEWORKVERSION	QUANT	7.06	Framework Version
INSTRUMENTVERSION	LABEL	4.30	Instrument Version
ZCURVE	TABLE
	Pt	Time	Freq	Zreal	Zimag	Zsig	Zmod	Zphz	Idc	Vdc	IERange
	#	s	Hz	ohm	ohm	V	ohm	°	A	V	#
	0	3	1000078	83.04276	-38.22408	1	91.41762	-24.71633	1.827156E-006	-0.0001999	9
	1	5	794390.6	84.16983	-51.02151	1	98.4264	-31.22313	1.394218E-006	-0.000203	9
	2	6	630984.4	84.91438	-66.75614	1	108.0131	-38.17295	-7.075562E-008	-0.0001927	9
	3	8	501234.4	85.76339	-85.66621	1	121.219	-44.96752	-1.121296E-007	-0.0001364	9
	4	9	398109.4	86.24892	-109.5371	1	139.4176	-51.7833	-4.204708E-008	-0.0001744	9
	5	10	316265.6	87.63396	-138.7081	1	164.0721	-57.71584	1.487591E-007	-0.0001259	9
	6	12	251203.1	88.72036	-174.6827	1	195.9218	-63.07424	-1.300664E-007	-6.570983E-006	8
	7	13	199546.9	90.98064	-220.1096	1	238.1716	-67.54262	1.59684E-008	-3.242475E-005	8
	8	15	158578.1	93.20354	-276.9409	1	292.204	-71.39951	-4.649627E-008	-2.638868E-005	8
	9	16	125953.1	95.2564	-348.1199	1	360.9172	-74.6967	3.980462E-007	-5.479653E-005	8
	10	17	100078.1	98.8126	-435.8279	1	446.8892	-77.22564	8.514817E-008	-6.553206E-005	8
	11	19	79453.13	109.2388	-545.5294	1	556.3591	-78.67664	1.449662E-008	-7.28678E-005	7
	12	20	63140.62	116.8774	-684.7353	1	694.6385	-80.31355	5.518274E-009	-7.956086E-005	7
	13	22	50203.12	126.5149	-857.8644	1	867.1432	-81.61069	9.370574E-009	-7.441709E-005	7
	14	23	39890.62	140.8158	-1073.574	1	1082.769	-82.52743	6.518917E-009	-8.262802E-005	7
	15	24	31640.63	161.3931	-1346.594	1	1356.232	-83.16554	9.548959E-009	-7.178423E-005	7
	16	26	25171.88	187.9094	-1681.313	1	1691.781	-83.62289	6.245401E-009	-8.3235E-005	7
	17	27	20015.62	223.4477	-2095.218	1	2107.099	-83.91261	8.390977E-009	-7.757019E-005	7
	18	29	15890.62	273.6763	-2617.265	1	2631.535	-84.03052	6.517286E-009	-7.244908E-005	7
	19	30	12609.37	340.1422	-3259.912	1	3277.609	-84.04326	1.191541E-008	-7.587722E-005	7
	20	32	10078.13	439.8752	-4034.246	1	4058.156	-83.77732	4.403883E-009	-7.041464E-005	7
	21	33	8015.625	592.0151	-4992.915	1	5027.89	-83.23795	1.434186E-009	-7.345653E-005	6
	22	34	6328.125	757.8708	-6235.61	1	6281.497	-83.0703	1.932721E-009	-7.743467E-005	6
	23	36	5015.625	976.524	-7754.007	1	7815.256	-82.82207	1.629392E-009	-7.967997E-005	6
	24	37	3984.375	1262.626	-9590.75	1	9673.5	-82.50011	2.072868E-009	-8.210412E-005	6
	25	39	3170.956	1616.446	-11840.47	1	11950.3	-82.22611	1.056467E-009	-8.361826E-005	6
	26	40	2527.573	2079.685	-14591.54	1	14739	-81.88845	1.463706E-009	-8.227065E-005	6
	27	41	1976.103	2747.308	-18230.51	1	18436.36	-81.43011	1.20555E-009	-8.209485E-005	6
	28	43	1577.524	3473.155	-22327.28	1	22595.8	-81.15813	1.266653E-009	-8.128001E-005	6
	29	44	1265.625	4448.498	-27244.24	1	27605.03	-80.72646	8.620691E-010	-8.11479E-005	6
	30	46	998.264	5808.046	-33649.75	1	34147.31	-80.20707	2.094123E-010	-8.606876E-005	6
	31	47	796.875	7285.448	-41215.59	1	41854.54	-79.9757	1.003564E-009	-8.742455E-005	6
	32	48	627.7902	10084.86	-50801.8	1	51793.12	-78.77197	2.53945E-010	-7.851251E-005	5
	33	50	505.5147	12725.55	-61556.7	1	62858.31	-78.31985	-6.278678E-011	-2.533569E-005	5
	34	51	397.9953	16572.72	-75978.54	1	77764.98	-77.69517	-6.402423E-011	-2.478624E-005	5
	35	53	315.5048	21592.17	-92978.73	1	95453	-76.92611	-8.372664E-011	-2.216765E-005	5
	36	54	252.4038	27924.17	-112687.1	1	116095.4	-76.08231	-9.367891E-011	-2.892804E-005	5
	37	56	198.6229	36994.63	-138001.6	1	142874.2	-74.99333	-6.70774E-011	-3.256965E-005	5
	38	57	158.3615	48655.19	-166402.7	1	173370	-73.70138	-7.764822E-011	-3.325924E-005	5
	39	58	125.558	63929.46	-201003.5	1	210925.1	-72.35666	-6.871564E-011	-2.529477E-005	5
	40	60	100.4464	84023.01	-239033.2	1	253370.7	-70.63282	-5.941E-011	-2.695421E-005	5
	41	61	79.00281	111586	-286476.4	1	307441.3	-68.71849	-6.276141E-011	-2.855752E-005	5
	42	63	63.3446	139848.8	-337725.1	1	365535.1	-67.50601	-7.675602E-011	-2.785165E-005	5
	43	64	49.86702	188248.5	-400422.1	1	442465.1	-64.82059	-3.90344E-011	-4.408587E-005	4
	44	66	39.72458	241685.7	-462426.7	1	521776.2	-62.40634	-3.438657E-011	-3.717625E-005	4
	45	67	31.6723	309109.2	-531280.3	1	614660.2	-59.80833	-4.165826E-011	-3.765462E-005	4
	46	68	24.93351	397068.1	-605581.1	1	724148.8	-56.74791	-5.3409E-011	-3.812771E-005	4
	47	70	19.86229	496395.3	-684998.4	1	845949.8	-54.07042	-5.102663E-011	-3.420222E-005	4
	48	71	15.83615	613156.7	-758201.8	1	975106	-51.03758	-4.076071E-011	-4.368339E-005	4
	49	73	12.40079	768598.1	-822743.1	1	1125899	-46.94872	-1.345905E-011	-3.724642E-005	4
	50	74	9.93114	926005.1	-882228.2	1	1278989	-43.61315	-5.532279E-011	-3.518868E-005	4
	51	76	7.944915	1100035	-915626.6	1	1431240	-39.77269	-2.193917E-011	-3.562113E-005	4
	52	77	6.317385	1278054	-908934.9	1	1568307	-35.41992	-3.339572E-011	-3.47924E-005	4
	53	79	5.008013	1448726	-864290.8	1	1686951	-30.81975	-3.697309E-011	-2.910184E-005	4
	54	82	3.945707	1601862	-805121.3	1	1792814	-26.68483	-4.306892E-011	-2.943364E-005	4
	55	85	3.158693	1718975	-717067.5	1	1862541	-22.64338	-2.20461E-011	-3.780546E-005	4
	56	88	2.504006	1834248	-635881.1	1	1941343	-19.11996	-2.363261E-011	-3.028052E-005	4
	57	91	1.998082	1918120	-560253.9	1	1998266	-16.28229	-4.313262E-011	-2.545031E-005	4
	58	94	1.584686	2021609	-498477.1	1	2082158	-13.85137	-2.119515E-011	-5.285363E-005	4
	59	98	1.266892	2078575	-428081.7	1	2122199	-11.63733	-3.492158E-012	-3.242568E-005	4
	60	102	0.999041	2121926	-356484.6	1	2151662	-9.53667	-6.699688E-011	-4.3741E-005	4
	61	106	0.7923428	2153401	-296756.2	1	2173752	-7.846404	-5.320849E-011	-8.008075E-005	4
	62	112	0.633446	2241933	-271867.5	1	2258356	-6.914201	-3.694351E-011	-8.4556E-005	4
	63	120	0.5040323	2191007	-217467.6	1	2201773	-5.668307	-5.544161E-011	-8.701724E-005	4
	64	129	0.400641	2163893	-176533	1	2171082	-4.663929	-1.774492E-011	-8.623367E-005	4
	65	140	0.316723	2170799	-133516.8	1	2174901	-3.519591	-7.909983E-011	-8.474351E-005	4
	66	154	0.2520161	2204129	-121605.5	1	2207481	-3.157902	-5.502837E-011	-8.117701E-005	4
	67	171	0.2003205	2211149	-90042.8	1	2212981	-2.331921	-4.7951E-011	-8.122135E-005	4
	68	192	0.1588983	2196933	-81834.34	1	2198456	-2.133245	-9.571456E-011	-8.664241E-005	4
	69	216	0.1260081	2228750	-58989.99	1	2229530	-1.516136	-6.371483E-011	-8.884408E-005	4
	70	246	0.1001603	2285036	-60287.82	1	2285832	-1.511327	2.433421E-011	-8.302343E-005	4
