EXPLAIN
TAG	EISPOT
TITLE	LABEL	Potentiostatic EIS	Test Identifier
DATE	LABEL	5/25/2021	Date
TIME	LABEL	0:04:54	Time
NOTES	NOTES	1	Notes...
	
PSTAT	PSTAT	REF600-17047	Potentiostat
VDC	POTEN	0.00000E+000	F	DC Voltage (V)
FREQINIT	QUANT	1.00000E+006	Initial Freq. (Hz)
FREQFINAL	QUANT	1.00000E-001	Final Freq. (Hz)
PTSPERDEC	QUANT	1.00000E+001	Points/decade
VAC	QUANT	1.00000E+001	AC Voltage (mV rms)
AREA	QUANT	4.00000E-002	Sample Area (cm^2)
SPEED	SELECTOR	1	Optimize for:
ZGUESS	QUANT	1.00000E+002	Estimated Z (ohms)
EOC	QUANT	0	Open Circuit (V)
SEQUENCER	TOGGLE	TRUE	Run as Sequence
PSTATMODEL	IQUANT	4	Pstat Model
PSTATSECTION	LABEL	REF600-17047	Pstat Section
PSTATSERIALNO	LABEL	17047	Pstat Serial Number
CTRLMODE	IQUANT	1	Control Mode
ELECTROMETER	IQUANT	0	RE=0 or CS=1
IESTAB	IQUANT	0	I/E Stability
CASPEED	IQUANT	3	Control Amp Speed
CONVENTION	IQUANT	1	Current Convention
ICHRANGE	IQUANT	2	Ich Range
ICHRANGEMODE	TOGGLE	F	Ich Auto Range
ICHOFFSETENABLE	TOGGLE	T	Ich Offset Enable
ICHOFFSET	QUANT	0	Ich Offset (V)
ICHFILTER	IQUANT	3	Ich Filter
VCHRANGE	IQUANT	2	Vch Range
VCHRANGEMODE	TOGGLE	F	Vch Auto Range
VCHOFFSETENABLE	TOGGLE	T	Vch Offset Enable
VCHOFFSET	QUANT	0	Vch Offset (V)
VCHFILTER	IQUANT	3	Vch Filter
ACHRANGE	IQUANT	2	Ach Range
ACHOFFSETENABLE	TOGGLE	F	Ach Offset Enable
ACHOFFSET	QUANT	0	Ach Offset (V)
ACHFILTER	IQUANT	1	Ach Filter
IERANGELOWERLIMIT	IQUANT	1	I/E Range Lower Limit
IERANGEMODE	TOGGLE	F	I/E AutoRange
IERANGE	IQUANT	10	I/E Range
POSFEEDENABLE	TOGGLE	F	Positive Feedback IR Comp
POSFEEDRESISTANCE	QUANT	0	Positive Feedback Resistance (ohm)
ACHSELECT	IQUANT	0	Ach Select
SENSECABLEID	IQUANT	13	Sense Cable ID
PWRCABLEID	IQUANT	13	Power Cable ID
DCCALDATE	LABEL	4/26/2021	DC Calibration Date
ACCALDATE	LABEL	4/26/2021	AC Calibration Date
THERMOSELECT	IQUANT	1	Thermo Select
FRAMEWORKVERSION	QUANT	7.06	Framework Version
INSTRUMENTVERSION	LABEL	4.30	Instrument Version
ZCURVE	TABLE
	Pt	Time	Freq	Zreal	Zimag	Zsig	Zmod	Zphz	Idc	Vdc	IERange
	#	s	Hz	ohm	ohm	V	ohm	°	A	V	#
	0	3	1000078	94.38351	-39.23283	1	102.2128	-22.57142	2.862527E-008	-0.0002955	9
	1	5	794390.6	95.5925	-52.16017	1	108.8972	-28.61915	6.130228E-007	-0.0001548	9
	2	6	630984.4	96.3961	-67.83698	1	117.8731	-35.13527	2.31614E-007	-0.0001899	9
	3	8	501234.4	96.9285	-87.62557	1	130.6651	-42.11431	3.355094E-007	-0.0001699	9
	4	9	398109.4	97.7141	-111.6882	1	148.3991	-48.81787	2.578402E-007	-0.0001581	9
	5	10	316265.6	98.0762	-141.6053	1	172.2527	-55.29341	-4.48124E-008	-0.0001621	9
	6	12	251203.1	99.4714	-178.512	1	204.3553	-60.87233	1.902509E-008	-4.602195E-005	8
	7	13	199546.9	100.557	-225.3174	1	246.738	-65.94926	1.291846E-008	-3.850783E-005	8
	8	15	158578.1	101.3891	-283.2594	1	300.8582	-70.30582	-1.174738E-007	-3.237888E-006	8
	9	16	125953.1	103.7477	-356.9732	1	371.7438	-73.79446	3.232884E-007	-2.655888E-005	8
	10	17	100078.1	105.2592	-447.2791	1	459.4977	-76.75742	7.052887E-008	-7.392027E-005	8
	11	19	79453.13	113.233	-560.5668	1	571.8888	-78.58007	1.94144E-008	-6.981154E-005	7
	12	20	63140.62	117.7473	-705.3027	1	715.0638	-80.52212	8.27805E-009	-6.963977E-005	7
	13	22	50203.12	122.9744	-885.4187	1	893.9178	-82.09286	2.985376E-009	-7.77538E-005	7
	14	23	39890.62	130.8523	-1112.457	1	1120.126	-83.29144	6.593901E-009	-6.903732E-005	7
	15	24	31640.63	143.9048	-1399.063	1	1406.444	-84.12733	6.229751E-009	-8.226241E-005	7
	16	26	25171.88	160.6848	-1751.281	1	1758.637	-84.75764	3.0637E-009	-7.435298E-005	7
	17	27	20015.62	179.8925	-2191.361	1	2198.732	-85.30701	9.011382E-009	-7.904122E-005	7
	18	29	15890.62	212.0382	-2747.51	1	2755.68	-85.58696	5.113954E-009	-7.668579E-005	7
	19	30	12609.37	259.4513	-3441.911	1	3451.676	-85.68919	9.564904E-009	-7.908267E-005	7
	20	32	10078.13	308.964	-4289.896	1	4301.008	-85.88059	2.740194E-009	-8.647017E-005	7
	21	33	8015.625	437.8206	-5335.088	1	5353.023	-85.30857	7.061214E-010	-8.837763E-005	6
	22	34	6328.125	558.191	-6711.002	1	6734.176	-85.24534	1.252448E-009	-7.802927E-005	6
	23	36	5015.625	707.8992	-8403.364	1	8433.128	-85.18478	8.803873E-010	-7.902533E-005	6
	24	37	3984.375	930.1081	-10474.1	1	10515.31	-84.9254	1.082725E-009	-7.672369E-005	6
	25	39	3170.956	1200.765	-13043.11	1	13098.27	-84.7401	1.462456E-009	-7.953856E-005	6
	26	40	2527.573	1602.05	-16176.79	1	16255.93	-84.34422	1.137258E-009	-7.711905E-005	6
	27	41	1976.103	2153.052	-20409.12	1	20522.37	-83.97788	5.834386E-010	-8.322451E-005	6
	28	43	1577.524	2848.07	-25202.3	1	25362.72	-83.55245	5.315584E-010	-8.115024E-005	6
	29	44	1265.625	3755.749	-30879.75	1	31107.3	-83.06546	1.150487E-009	-8.629174E-005	6
	30	46	998.264	5005.039	-38530.73	1	38854.44	-82.59888	1.026964E-009	-8.068945E-005	6
	31	47	796.875	7183.248	-47226.95	1	47770.11	-81.35156	1.748713E-010	-8.743368E-005	5
	32	48	627.7902	9525.21	-58773.93	1	59540.78	-80.79439	2.714796E-010	-7.644048E-005	5
	33	50	505.5147	12430.8	-71472.73	1	72545.68	-80.1336	-6.377099E-011	-1.982564E-005	5
	34	51	397.9953	16647.76	-88582.64	1	90133.41	-79.35628	-6.466561E-011	-2.031201E-005	5
	35	53	315.5048	22201.67	-108831.3	1	111072.8	-78.46983	-4.682116E-011	-2.254977E-005	5
	36	54	252.4038	29335.91	-132376.6	1	135588.2	-77.50465	-6.670567E-011	-2.548377E-005	5
	37	56	198.6229	39837.36	-162742.5	1	167547.4	-76.24517	-6.705661E-011	-2.502276E-005	5
	38	57	158.3615	52953	-197331.7	1	204313	-74.97884	-8.923373E-011	-2.735608E-005	5
	39	58	125.558	71548.23	-238866.7	1	249352.1	-73.32536	-6.131812E-011	-2.263022E-005	5
	40	60	100.4464	95780.6	-285305.5	1	300953.8	-71.44246	-1.05688E-010	-2.131599E-005	5
	41	61	79.00281	126014.5	-345965	1	368200.3	-69.98632	-7.967881E-011	-2.580612E-005	5
	42	63	63.3446	167336.2	-404785	1	438009.5	-67.54003	-7.262776E-011	-4.249326E-005	4
	43	64	49.86702	229818.7	-478973.2	1	531255.1	-64.36759	-4.1871E-011	-4.063082E-005	4
	44	66	39.72458	296809.7	-555399.1	1	629733.4	-61.8796	-5.246624E-011	-3.226954E-005	4
	45	67	31.6723	387051.1	-629949.9	1	739354.7	-58.43279	-5.148826E-011	-3.92142E-005	4
	46	68	24.93351	497339	-713329.8	1	869589.3	-55.11549	-3.924865E-011	-3.666563E-005	4
	47	70	19.86229	623947.1	-790990.7	1	1007460	-51.73301	-3.104243E-011	-2.98399E-005	4
	48	71	15.83615	773023.6	-843203.6	1	1143922	-47.48634	-1.698017E-013	-3.687293E-005	4
	49	73	12.40079	953372	-898481.8	1	1310033	-43.30222	-7.993363E-012	-3.156538E-005	4
	50	74	9.93114	1122526	-920682.7	1	1451799	-39.35821	-4.508084E-011	-3.073875E-005	4
	51	76	7.944915	1306371	-928137.3	1	1602512	-35.39264	-3.032001E-011	-2.82003E-005	4
	52	77	6.317385	1469477	-869926.6	1	1707670	-30.62542	-3.403459E-011	-2.340345E-005	4
	53	80	5.008013	1659535	-856795.6	1	1867661	-27.3067	-2.872183E-011	-3.341509E-005	4
	54	82	3.945707	1769366	-735870.5	1	1916289	-22.58218	-3.254103E-011	-3.013166E-005	4
	55	85	3.158693	1897658	-671980.8	1	2013123	-19.49959	-3.134704E-011	-2.151085E-005	4
	56	88	2.504006	1990131	-584438.6	1	2074172	-16.36585	-1.821956E-011	-2.55341E-005	4
	57	91	1.998082	2053226	-503885.8	1	2114151	-13.78856	-2.623234E-011	-3.910709E-005	4
	58	94	1.584686	2101023	-415502.4	1	2141715	-11.18658	-3.298402E-011	-1.315361E-005	4
	59	97	1.266892	2134203	-353484.2	1	2163279	-9.404419	-4.376447E-011	-3.409853E-005	4
	60	102	0.999041	2187248	-297010.5	1	2207322	-7.733002	-1.67704E-011	-2.627448E-005	4
	61	106	0.7923428	2235402	-258403	1	2250287	-6.593884	-5.922665E-011	-8.38897E-005	4
	62	112	0.633446	2230512	-208868.6	1	2240270	-5.349667	-6.136657E-011	-8.390922E-005	4
	63	120	0.5040323	2268204	-174728.8	1	2274924	-4.405021	-6.565951E-011	-8.230511E-005	4
	64	129	0.400641	2284196	-147417.9	1	2288948	-3.692645	-4.858854E-011	-8.195262E-005	4
	65	140	0.316723	2305715	-118646.5	1	2308766	-2.945703	-4.812453E-011	-8.413925E-005	4
	66	153	0.2520161	2293682	-99370.6	1	2295833	-2.48071	-4.650394E-011	-8.590094E-005	4
	67	170	0.2003205	2273923	-82556.4	1	2275421	-2.079251	-5.336216E-011	-7.873916E-005	4
	68	191	0.1588983	2351642	-72349.15	1	2352755	-1.762171	-4.13777E-011	-8.487525E-005	4
	69	216	0.1260081	2334552	-59956.49	1	2335322	-1.47116	-3.529977E-011	-8.784059E-005	4
	70	246	0.1001603	2377412	-44493.47	1	2377828	-1.072171	-3.302694E-011	-8.246642E-005	4
