EXPLAIN
TAG	EISPOT
TITLE	LABEL	Potentiostatic EIS	Test Identifier
DATE	LABEL	5/25/2021	Date
TIME	LABEL	5:51:26	Time
NOTES	NOTES	1	Notes...
	
PSTAT	PSTAT	REF600-17047	Potentiostat
VDC	POTEN	0.00000E+000	F	DC Voltage (V)
FREQINIT	QUANT	1.00000E+006	Initial Freq. (Hz)
FREQFINAL	QUANT	1.00000E-001	Final Freq. (Hz)
PTSPERDEC	QUANT	1.00000E+001	Points/decade
VAC	QUANT	1.00000E+001	AC Voltage (mV rms)
AREA	QUANT	4.00000E-002	Sample Area (cm^2)
SPEED	SELECTOR	1	Optimize for:
ZGUESS	QUANT	1.00000E+002	Estimated Z (ohms)
EOC	QUANT	0	Open Circuit (V)
SEQUENCER	TOGGLE	TRUE	Run as Sequence
PSTATMODEL	IQUANT	4	Pstat Model
PSTATSECTION	LABEL	REF600-17047	Pstat Section
PSTATSERIALNO	LABEL	17047	Pstat Serial Number
CTRLMODE	IQUANT	1	Control Mode
ELECTROMETER	IQUANT	0	RE=0 or CS=1
IESTAB	IQUANT	0	I/E Stability
CASPEED	IQUANT	3	Control Amp Speed
CONVENTION	IQUANT	1	Current Convention
ICHRANGE	IQUANT	2	Ich Range
ICHRANGEMODE	TOGGLE	F	Ich Auto Range
ICHOFFSETENABLE	TOGGLE	T	Ich Offset Enable
ICHOFFSET	QUANT	0	Ich Offset (V)
ICHFILTER	IQUANT	3	Ich Filter
VCHRANGE	IQUANT	2	Vch Range
VCHRANGEMODE	TOGGLE	F	Vch Auto Range
VCHOFFSETENABLE	TOGGLE	T	Vch Offset Enable
VCHOFFSET	QUANT	0	Vch Offset (V)
VCHFILTER	IQUANT	3	Vch Filter
ACHRANGE	IQUANT	2	Ach Range
ACHOFFSETENABLE	TOGGLE	F	Ach Offset Enable
ACHOFFSET	QUANT	0	Ach Offset (V)
ACHFILTER	IQUANT	1	Ach Filter
IERANGELOWERLIMIT	IQUANT	1	I/E Range Lower Limit
IERANGEMODE	TOGGLE	F	I/E AutoRange
IERANGE	IQUANT	10	I/E Range
POSFEEDENABLE	TOGGLE	F	Positive Feedback IR Comp
POSFEEDRESISTANCE	QUANT	0	Positive Feedback Resistance (ohm)
ACHSELECT	IQUANT	0	Ach Select
SENSECABLEID	IQUANT	13	Sense Cable ID
PWRCABLEID	IQUANT	13	Power Cable ID
DCCALDATE	LABEL	4/26/2021	DC Calibration Date
ACCALDATE	LABEL	4/26/2021	AC Calibration Date
THERMOSELECT	IQUANT	1	Thermo Select
FRAMEWORKVERSION	QUANT	7.06	Framework Version
INSTRUMENTVERSION	LABEL	4.30	Instrument Version
ZCURVE	TABLE
	Pt	Time	Freq	Zreal	Zimag	Zsig	Zmod	Zphz	Idc	Vdc	IERange
	#	s	Hz	ohm	ohm	V	ohm	°	A	V	#
	0	3	1000078	83.60952	-36.95376	1	91.41188	-23.84448	7.866481E-007	-0.0002696	9
	1	5	794390.6	84.9087	-49.06849	1	98.0673	-30.02349	1.450599E-007	-0.0002159	9
	2	6	630984.4	86.02935	-64.29427	1	107.4002	-36.7727	4.229445E-007	-0.0001848	9
	3	8	501234.4	87.44511	-82.32762	1	120.102	-43.27345	-3.644969E-007	-0.0001579	9
	4	9	398109.4	88.8853	-104.8611	1	137.4643	-49.71379	9.393391E-007	-0.000135	9
	5	10	316265.6	90.60048	-133.0245	1	160.9471	-55.74195	3.128702E-008	-0.0001552	9
	6	12	251203.1	93.62677	-166.4058	1	190.9368	-60.6361	2.294761E-007	-1.478887E-005	8
	7	13	199546.9	97.7071	-209.6095	1	231.2635	-65.00795	-1.106291E-007	-5.010811E-005	8
	8	15	158578.1	101.9974	-262.3083	1	281.4411	-68.75166	4.122135E-007	-5.71245E-005	8
	9	16	125953.1	109.8517	-328.3374	1	346.2266	-71.50134	-1.305988E-007	-4.650864E-005	8
	10	17	100078.1	120.1797	-407.8288	1	425.1676	-73.58072	7.57494E-008	-6.493987E-005	8
	11	19	79453.13	136.2164	-507.8133	1	525.7654	-74.9844	2.08787E-008	-6.913579E-005	7
	12	20	63140.62	155.1051	-632.4872	1	651.2278	-76.22124	1.460421E-008	-8.082876E-005	7
	13	22	50203.12	179.9438	-785.3685	1	805.7192	-77.09512	4.930847E-009	-8.852645E-005	7
	14	23	39890.62	214.9792	-974.378	1	997.812	-77.55804	9.466181E-009	-7.469518E-005	7
	15	24	31640.63	265.6	-1206.736	1	1235.619	-77.58723	6.115645E-009	-8.456395E-005	7
	16	26	25171.88	334.6159	-1486.155	1	1523.36	-77.31114	3.651277E-009	-0.0000963	7
	17	27	20015.62	424.5631	-1827.389	1	1876.061	-76.92033	9.222344E-009	-8.086157E-005	7
	18	29	15890.62	552.303	-2237.494	1	2304.652	-76.13428	3.282468E-009	-8.338268E-005	7
	19	30	12609.37	729.165	-2736.305	1	2831.792	-75.07868	1.094601E-008	-7.545382E-005	7
	20	31	10078.13	941.3858	-3319.424	1	3450.331	-74.16671	9.454439E-009	-7.677334E-005	7
	21	33	8015.625	1266.137	-4008.628	1	4203.832	-72.47113	6.281159E-009	-8.478031E-005	7
	22	34	6328.125	1739.874	-4828.616	1	5132.513	-70.18461	1.116501E-009	-7.662834E-005	6
	23	36	5015.625	2307.193	-5794.52	1	6236.955	-68.28913	6.836451E-010	-8.712843E-005	6
	24	37	3984.375	3085.911	-6850.498	1	7513.465	-65.75009	-3.743068E-010	-8.986598E-005	6
	25	38	3170.956	4090.932	-7999.081	1	8984.487	-62.91365	7.955259E-010	-8.527684E-005	6
	26	40	2527.573	5385.289	-9203.921	1	10663.65	-59.66775	2.238565E-010	-8.610498E-005	6
	27	41	1976.103	7240.707	-10305.12	1	12594.58	-54.9069	-3.363653E-010	-7.950418E-005	6
	28	43	1577.524	9154.955	-11570.8	1	14754.54	-51.64853	2.108922E-010	-7.742614E-005	6
	29	44	1265.625	11368.84	-12572.33	1	16950.34	-47.87776	5.968701E-010	-7.716746E-005	6
	30	46	998.264	14072	-12897.12	1	19088.13	-42.50557	1.675398E-010	-7.367463E-005	6
	31	47	796.875	16519.19	-12295.03	1	20592.51	-36.65986	4.673293E-010	-7.606431E-005	6
	32	48	627.7902	19375.07	-12447.13	1	23028.78	-32.71792	-6.039154E-010	-7.584482E-005	6
	33	50	505.5147	21383.29	-11349.29	1	24208.5	-27.95736	-7.598222E-010	-2.490144E-005	6
	34	51	397.9953	23380.06	-10247.03	1	25527.02	-23.66691	-9.251988E-010	-2.088911E-005	6
	35	53	315.5048	25154.03	-9257.603	1	26803.52	-20.20546	-9.239978E-010	-2.462325E-005	6
	36	54	252.4038	24724.38	-7000.627	1	25696.38	-15.80929	-8.272854E-010	-2.413559E-005	6
	37	55	198.6229	25077.22	-5716.578	1	25720.54	-12.84165	-9.245726E-010	-2.399578E-005	6
	38	57	158.3615	27508.34	-5647.892	1	28082.16	-11.60248	-6.120548E-010	-2.885188E-005	6
	39	59	125.558	27206.23	-4493.726	1	27574.86	-9.379016	-9.873169E-010	-2.352725E-005	6
	40	60	100.4464	28528.69	-4136.479	1	28827.01	-8.250033	-1.634292E-009	-2.894904E-005	6
	41	61	79.00281	28172.56	-3279.897	1	28362.84	-6.640578	-1.572001E-009	-3.116657E-005	6
	42	63	63.3446	28780.65	-2842.553	1	28920.69	-5.640589	-6.813661E-010	-3.050212E-005	6
	43	64	49.86702	29255.8	-2456.627	1	29358.76	-4.799901	-1.403154E-009	-2.882616E-005	6
	44	66	39.72458	29590.85	-2052.86	1	29661.97	-3.968526	-9.538795E-010	-2.769182E-005	6
	45	67	31.6723	29591.05	-1717.69	1	29640.86	-3.322156	-9.954129E-010	-2.609911E-005	6
	46	69	24.93351	29362.48	-1449.793	1	29398.25	-2.826723	-3.103871E-009	-2.582766E-005	6
	47	70	19.86229	29866.2	-1136.816	1	29887.83	-2.179832	-1.526943E-010	-2.42184E-005	6
	48	71	15.83615	29000.12	-941.3346	1	29015.39	-1.85915	9.404744E-011	-2.402922E-005	6
	49	73	12.40079	28414.36	-553.3088	1	28419.75	-1.115571	-2.501292E-009	-2.38323E-005	6
	50	74	9.93114	28594.85	-645.9451	1	28602.14	-1.294066	1.899621E-009	-2.411832E-005	6
	51	76	7.944915	28190.83	-447.9588	1	28194.39	-0.9103666	-1.739418E-009	-2.220772E-005	6
	52	77	6.317385	28585.42	-399.7892	1	28588.22	-0.8012734	-1.12989E-009	-2.35255E-005	6
	53	79	5.008013	28284.94	-398.1681	1	28287.74	-0.8065015	1.29774E-009	-1.47245E-005	6
	54	81	3.945707	28617.31	-324.1156	1	28619.14	-0.6488961	-4.488232E-011	-1.959406E-005	6
	55	83	3.158693	28115.04	-129.8559	1	28115.35	-0.264632	2.341154E-010	-1.669717E-005	6
	56	86	2.504006	28096.75	-223.5634	1	28097.64	-0.455888	-1.317447E-009	-2.045903E-005	6
	57	89	1.998082	27998.66	-75.26485	1	27998.77	-0.1540198	-2.239647E-009	-8.340401E-006	6
	58	92	1.584686	28444.8	-111.0713	1	28445.02	-0.2237275	2.513636E-010	-7.858253E-006	6
	59	95	1.266892	28248.01	-79.69138	1	28248.13	-0.1616385	-7.67614E-010	-4.805712E-006	6
	60	100	0.999041	27478.15	-71.08125	1	27478.24	-0.148214	-8.606409E-010	-3.164895E-005	6
	61	104	0.7923428	27714.22	278.9327	1	27715.62	0.57664	-4.114912E-009	-7.006442E-005	6
	62	110	0.633446	27329.26	-31.61218	1	27329.27	-0.0662749	-2.95854E-009	-7.849478E-005	6
	63	117	0.5040323	27358.46	-45.77474	1	27358.5	-0.0958642	-2.034544E-009	-7.573237E-005	6
	64	127	0.400641	27407.71	-81.08922	1	27407.83	-0.1695164	-1.019271E-009	-8.296272E-005	6
	65	138	0.316723	27417.99	-40.07664	1	27418.02	-0.0837487	-1.509846E-009	-7.427672E-005	6
	66	151	0.2520161	28926.38	-148.1359	1	28926.76	-0.2934169	-1.294787E-009	-7.82356E-005	6
	67	168	0.2003205	29026.83	-30.49291	1	29026.84	-0.0601896	-1.581636E-009	-7.305684E-005	6
	68	189	0.1588983	27625.9	302.1312	1	27627.55	0.6265914	-2.39103E-009	-7.535507E-005	6
	69	221	0.1260081	29604.48	-27.31457	1	29604.49	-0.0528639	-3.905658E-009	-7.403988E-005	6
	70	250	0.1001603	28873.89	12.03025	1	28873.9	0.0238722	-1.42023E-009	-6.977518E-005	6
