EXPLAIN
TAG	EISPOT
TITLE	LABEL	Potentiostatic EIS	Test Identifier
DATE	LABEL	5/25/2021	Date
TIME	LABEL	8:19:02	Time
NOTES	NOTES	1	Notes...
	
PSTAT	PSTAT	REF600-17047	Potentiostat
VDC	POTEN	0.00000E+000	F	DC Voltage (V)
FREQINIT	QUANT	1.00000E+006	Initial Freq. (Hz)
FREQFINAL	QUANT	1.00000E-001	Final Freq. (Hz)
PTSPERDEC	QUANT	1.00000E+001	Points/decade
VAC	QUANT	1.00000E+001	AC Voltage (mV rms)
AREA	QUANT	4.00000E-002	Sample Area (cm^2)
SPEED	SELECTOR	1	Optimize for:
ZGUESS	QUANT	1.00000E+002	Estimated Z (ohms)
EOC	QUANT	0	Open Circuit (V)
SEQUENCER	TOGGLE	TRUE	Run as Sequence
PSTATMODEL	IQUANT	4	Pstat Model
PSTATSECTION	LABEL	REF600-17047	Pstat Section
PSTATSERIALNO	LABEL	17047	Pstat Serial Number
CTRLMODE	IQUANT	1	Control Mode
ELECTROMETER	IQUANT	0	RE=0 or CS=1
IESTAB	IQUANT	0	I/E Stability
CASPEED	IQUANT	3	Control Amp Speed
CONVENTION	IQUANT	1	Current Convention
ICHRANGE	IQUANT	2	Ich Range
ICHRANGEMODE	TOGGLE	F	Ich Auto Range
ICHOFFSETENABLE	TOGGLE	T	Ich Offset Enable
ICHOFFSET	QUANT	0	Ich Offset (V)
ICHFILTER	IQUANT	3	Ich Filter
VCHRANGE	IQUANT	2	Vch Range
VCHRANGEMODE	TOGGLE	F	Vch Auto Range
VCHOFFSETENABLE	TOGGLE	T	Vch Offset Enable
VCHOFFSET	QUANT	0	Vch Offset (V)
VCHFILTER	IQUANT	3	Vch Filter
ACHRANGE	IQUANT	2	Ach Range
ACHOFFSETENABLE	TOGGLE	F	Ach Offset Enable
ACHOFFSET	QUANT	0	Ach Offset (V)
ACHFILTER	IQUANT	1	Ach Filter
IERANGELOWERLIMIT	IQUANT	1	I/E Range Lower Limit
IERANGEMODE	TOGGLE	F	I/E AutoRange
IERANGE	IQUANT	10	I/E Range
POSFEEDENABLE	TOGGLE	F	Positive Feedback IR Comp
POSFEEDRESISTANCE	QUANT	0	Positive Feedback Resistance (ohm)
ACHSELECT	IQUANT	0	Ach Select
SENSECABLEID	IQUANT	13	Sense Cable ID
PWRCABLEID	IQUANT	13	Power Cable ID
DCCALDATE	LABEL	4/26/2021	DC Calibration Date
ACCALDATE	LABEL	4/26/2021	AC Calibration Date
THERMOSELECT	IQUANT	1	Thermo Select
FRAMEWORKVERSION	QUANT	7.06	Framework Version
INSTRUMENTVERSION	LABEL	4.30	Instrument Version
ZCURVE	TABLE
	Pt	Time	Freq	Zreal	Zimag	Zsig	Zmod	Zphz	Idc	Vdc	IERange
	#	s	Hz	ohm	ohm	V	ohm	°	A	V	#
	0	3	1000078	84.87185	-35.30678	1	91.92279	-22.58736	1.928383E-006	-0.0001824	9
	1	5	794390.6	86.41835	-46.95998	1	98.3533	-28.51978	-3.51252E-007	-0.0002085	9
	2	6	630984.4	88.10683	-61.30704	1	107.3376	-34.83121	1.375117E-007	-0.0001975	9
	3	7	501234.4	89.8305	-78.5526	1	119.3316	-41.16819	5.101419E-007	-0.0001223	9
	4	9	398109.4	91.86037	-99.625	1	135.5119	-47.32206	-4.850591E-007	-0.0001417	9
	5	10	316265.6	94.58811	-125.5311	1	157.1781	-53.00185	7.733786E-007	-0.0001117	9
	6	12	251203.1	98.5563	-157.2494	1	185.5821	-57.92251	-9.452501E-008	-5.406905E-005	8
	7	13	199546.9	103.9054	-195.9102	1	221.7592	-62.05976	-2.944944E-008	-3.85341E-005	8
	8	14	158578.1	110.0494	-244.7393	1	268.3434	-65.78848	9.248544E-008	-3.406787E-005	8
	9	16	125953.1	119.7373	-303.5302	1	326.2937	-68.47163	7.027239E-008	-4.794687E-005	8
	10	17	100078.1	130.8467	-374.7242	1	396.912	-70.75175	5.193111E-008	-5.982033E-005	8
	11	19	79453.13	150.3188	-462.5833	1	486.3939	-71.99816	1.615762E-008	-7.226393E-005	7
	12	20	63140.62	171.0265	-571.7655	1	596.7963	-73.34702	1.1715E-008	-7.1453E-005	7
	13	21	50203.12	197.0786	-704.2932	1	731.3473	-74.36707	2.796114E-009	-7.614675E-005	7
	14	23	39890.62	232.3231	-866.1946	1	896.8094	-74.98599	-1.72458E-009	-8.234361E-005	7
	15	24	31640.63	278.515	-1064.408	1	1100.243	-75.33662	1.371355E-008	-7.310061E-005	7
	16	26	25171.88	335.2032	-1302.411	1	1344.855	-75.56695	6.692268E-009	-6.773428E-005	7
	17	27	20015.62	410.6896	-1589.329	1	1641.534	-75.51145	2.716803E-009	-6.876625E-005	7
	18	29	15890.62	506.2663	-1942.424	1	2007.315	-75.39164	4.555183E-010	-8.225223E-005	7
	19	30	12609.37	630.9636	-2369.414	1	2451.987	-75.08846	-1.191606E-009	-7.543113E-005	7
	20	31	10078.13	789.7561	-2869.093	1	2975.803	-74.60972	5.098233E-009	-6.774751E-005	7
	21	33	8015.625	989.006	-3485.095	1	3622.709	-74.15704	-3.70175E-011	-7.067953E-005	7
	22	34	6328.125	1293.258	-4230.873	1	4424.116	-73.00309	1.194485E-010	-7.483914E-005	6
	23	36	5015.625	1640.518	-5146.172	1	5401.332	-72.31854	-1.698943E-010	-7.794797E-005	6
	24	37	3984.375	2127.13	-6210.36	1	6564.545	-71.09299	-5.454091E-010	-7.549869E-005	6
	25	38	3170.956	2768.125	-7443.751	1	7941.785	-69.60123	2.371747E-010	-7.675649E-005	6
	26	40	2527.573	3568.125	-8906.062	1	9594.24	-68.16698	-4.381118E-011	-7.530731E-005	6
	27	41	1976.103	4746.812	-10717.24	1	11721.41	-66.11079	-4.423159E-010	-8.20104E-005	6
	28	43	1577.524	6189.754	-12584.43	1	14024.3	-63.80936	1.247427E-009	-6.878314E-005	6
	29	44	1265.625	8065.791	-14406.12	1	16510.4	-60.75613	-1.383751E-010	-8.447603E-005	6
	30	45	998.264	10620.12	-16375.93	1	19518.15	-57.03577	-5.940137E-011	-6.818509E-005	6
	31	47	796.875	13618.4	-17911.08	1	22500.39	-52.75304	-2.326002E-010	-7.735188E-005	6
	32	48	627.7902	17084.45	-19946.39	1	26262.84	-49.41934	9.995875E-010	-6.833354E-005	6
	33	50	505.5147	20710.88	-22478.63	1	30565.17	-47.34382	-9.775338E-010	-1.52233E-005	6
	34	51	397.9953	25186.48	-22320.93	1	33653.87	-41.54821	-7.821598E-010	-1.706459E-005	6
	35	52	315.5048	29777.89	-23392.32	1	37867.18	-38.15176	-1.052982E-009	-2.21296E-005	6
	36	54	252.4038	33522.76	-21427.59	1	39785.89	-32.58652	-1.215413E-009	-1.836545E-005	5
	37	55	198.6229	37265.62	-20047.06	1	42315.62	-28.27806	-1.21694E-009	-1.70006E-005	5
	38	57	158.3615	40606.11	-18717.62	1	44712.48	-24.74761	-1.477063E-009	-1.737623E-005	5
	39	58	125.558	45129.23	-18545.74	1	48791.31	-22.34008	-1.596374E-009	-2.10682E-005	5
	40	60	100.4464	46498.24	-15798.55	1	49108.86	-18.76605	-1.807634E-009	-2.636302E-005	5
	41	61	79.00281	49477.02	-14477.76	1	51551.73	-16.31031	-1.335789E-009	-2.678796E-005	5
	42	62	63.3446	52907.04	-13441.58	1	54587.82	-14.25499	-8.006247E-010	-3.319394E-005	5
	43	64	49.86702	52079.57	-10760.06	1	53179.51	-11.67352	-2.13979E-009	-2.865582E-005	5
	44	65	39.72458	52469.81	-8829.446	1	53207.52	-9.55205	-1.777191E-009	-2.228905E-005	5
	45	67	31.6723	54277.51	-7944.253	1	54855.8	-8.326894	-3.140245E-010	-2.634699E-005	5
	46	68	24.93351	59936.16	-7911.264	1	60456.02	-7.51928	-9.458956E-010	-2.53156E-005	5
	47	70	19.86229	56922.37	-5731.634	1	57210.21	-5.749853	-2.152615E-009	-1.969307E-005	5
	48	71	15.83615	58511.89	-5351.606	1	58756.11	-5.225839	-1.780898E-009	-2.323163E-005	5
	49	72	12.40079	60841.28	-4519.389	1	61008.9	-4.248221	3.345093E-010	-2.602779E-005	5
	50	74	9.93114	60688.18	-4314.129	1	60841.32	-4.066135	-3.101151E-009	-2.348207E-005	5
	51	75	7.944915	58856.26	-3283.833	1	58947.8	-3.193457	-1.371056E-009	-2.224227E-005	5
	52	77	6.317385	59783.19	-2517.575	1	59836.17	-2.411401	-2.404986E-009	-2.494734E-005	5
	53	79	5.008013	59885.08	-1923.218	1	59915.95	-1.83943	8.912218E-010	-1.961838E-005	5
	54	81	3.945707	61339.79	-2154.258	1	61377.61	-2.011405	-1.029797E-010	-2.110456E-005	5
	55	83	3.158693	57011.71	-1547.485	1	57032.7	-1.554814	-7.37796E-010	-1.35398E-005	5
	56	85	2.504006	59922.11	-1043.414	1	59931.19	-0.997581	1.465346E-009	-2.436771E-005	5
	57	88	1.998082	62809.91	-713.3568	1	62813.96	-0.6507026	-2.198417E-009	-2.402169E-005	5
	58	91	1.584686	63476.27	-1024.77	1	63484.54	-0.924911	-8.928133E-010	3.698653E-006	5
	59	95	1.266892	60951.04	-721.6117	1	60955.31	-0.6783047	2.336568E-010	-1.501069E-005	5
	60	99	0.999041	63824.96	-462.309	1	63826.63	-0.4150083	1.314617E-009	-1.300484E-005	5
	61	103	0.7923428	57427.55	-343.1002	1	57428.58	-0.3423088	-3.289263E-009	-6.855217E-005	5
	62	109	0.633446	59344.63	-636.9739	1	59348.05	-0.6149591	-6.332317E-010	-7.14906E-005	5
	63	117	0.5040323	59765.02	-191.3027	1	59765.33	-0.1833983	-2.428551E-009	-6.961914E-005	5
	64	126	0.400641	60411.95	-50.57337	1	60411.97	-0.0479647	-4.271049E-009	-6.879747E-005	5
	65	137	0.316723	58237.55	-178.3584	1	58237.83	-0.1754736	-1.04878E-009	-7.261074E-005	5
	66	151	0.2520161	61580.58	-306.8077	1	61581.34	-0.2854576	2.789749E-009	-7.387369E-005	5
	67	168	0.2003205	59775.38	-563.9048	1	59778.04	-0.5404969	-7.775238E-010	-6.854164E-005	5
	68	194	0.1588983	56741.76	-499.732	1	56743.96	-0.5045983	2.16692E-010	-7.173412E-005	5
	69	219	0.1260081	44817.96	374.2495	1	44819.52	0.4784336	-9.130066E-009	-6.205633E-005	5
	70	256	0.1001603	37840.42	-450.2805	1	37843.1	-0.6817566	-4.54393E-009	-6.077146E-005	5
