EXPLAIN
TAG	EISPOT
TITLE	LABEL	Potentiostatic EIS	Test Identifier
DATE	LABEL	5/25/2021	Date
TIME	LABEL	0:52:26	Time
NOTES	NOTES	1	Notes...
	
PSTAT	PSTAT	REF600-17047	Potentiostat
VDC	POTEN	0.00000E+000	F	DC Voltage (V)
FREQINIT	QUANT	1.00000E+006	Initial Freq. (Hz)
FREQFINAL	QUANT	1.00000E-001	Final Freq. (Hz)
PTSPERDEC	QUANT	1.00000E+001	Points/decade
VAC	QUANT	1.00000E+001	AC Voltage (mV rms)
AREA	QUANT	4.00000E-002	Sample Area (cm^2)
SPEED	SELECTOR	1	Optimize for:
ZGUESS	QUANT	1.00000E+002	Estimated Z (ohms)
EOC	QUANT	0	Open Circuit (V)
SEQUENCER	TOGGLE	TRUE	Run as Sequence
PSTATMODEL	IQUANT	4	Pstat Model
PSTATSECTION	LABEL	REF600-17047	Pstat Section
PSTATSERIALNO	LABEL	17047	Pstat Serial Number
CTRLMODE	IQUANT	1	Control Mode
ELECTROMETER	IQUANT	0	RE=0 or CS=1
IESTAB	IQUANT	0	I/E Stability
CASPEED	IQUANT	3	Control Amp Speed
CONVENTION	IQUANT	1	Current Convention
ICHRANGE	IQUANT	2	Ich Range
ICHRANGEMODE	TOGGLE	F	Ich Auto Range
ICHOFFSETENABLE	TOGGLE	T	Ich Offset Enable
ICHOFFSET	QUANT	0	Ich Offset (V)
ICHFILTER	IQUANT	3	Ich Filter
VCHRANGE	IQUANT	2	Vch Range
VCHRANGEMODE	TOGGLE	F	Vch Auto Range
VCHOFFSETENABLE	TOGGLE	T	Vch Offset Enable
VCHOFFSET	QUANT	0	Vch Offset (V)
VCHFILTER	IQUANT	3	Vch Filter
ACHRANGE	IQUANT	2	Ach Range
ACHOFFSETENABLE	TOGGLE	F	Ach Offset Enable
ACHOFFSET	QUANT	0	Ach Offset (V)
ACHFILTER	IQUANT	1	Ach Filter
IERANGELOWERLIMIT	IQUANT	1	I/E Range Lower Limit
IERANGEMODE	TOGGLE	F	I/E AutoRange
IERANGE	IQUANT	10	I/E Range
POSFEEDENABLE	TOGGLE	F	Positive Feedback IR Comp
POSFEEDRESISTANCE	QUANT	0	Positive Feedback Resistance (ohm)
ACHSELECT	IQUANT	0	Ach Select
SENSECABLEID	IQUANT	13	Sense Cable ID
PWRCABLEID	IQUANT	13	Power Cable ID
DCCALDATE	LABEL	4/26/2021	DC Calibration Date
ACCALDATE	LABEL	4/26/2021	AC Calibration Date
THERMOSELECT	IQUANT	1	Thermo Select
FRAMEWORKVERSION	QUANT	7.06	Framework Version
INSTRUMENTVERSION	LABEL	4.30	Instrument Version
ZCURVE	TABLE
	Pt	Time	Freq	Zreal	Zimag	Zsig	Zmod	Zphz	Idc	Vdc	IERange
	#	s	Hz	ohm	ohm	V	ohm	°	A	V	#
	0	3	1000078	94.90189	-39.05248	1	102.6229	-22.36735	1.012075E-006	-0.0002625	9
	1	5	794390.6	96.0687	-52.05854	1	109.2671	-28.45276	1.794304E-008	-0.0001996	9
	2	6	630984.4	96.7648	-67.66841	1	118.0781	-34.96541	3.350921E-007	-0.0001876	9
	3	8	501234.4	97.4483	-87.06455	1	130.6767	-41.77898	2.965435E-007	-0.0001732	9
	4	9	398109.4	98.262	-110.8212	1	148.1106	-48.43751	-4.752868E-007	-0.000153	9
	5	10	316265.6	98.9764	-140.5486	1	171.9018	-54.84623	-3.881636E-007	-0.0001362	9
	6	12	251203.1	99.906	-177.1377	1	203.369	-60.57693	-1.394969E-007	-1.432015E-005	8
	7	13	199546.9	101.0365	-223.7579	1	245.5116	-65.69875	5.123122E-007	-5.647235E-005	8
	8	15	158578.1	103.0018	-281.1924	1	299.4637	-69.88203	8.937656E-008	-3.686943E-005	8
	9	16	125953.1	105.6796	-354.0829	1	369.5171	-73.38173	2.446961E-008	-3.859195E-005	8
	10	17	100078.1	108.1194	-443.4691	1	456.4589	-76.29839	3.400723E-008	-7.164924E-005	8
	11	19	79453.13	115.7853	-556.6381	1	568.5527	-78.24957	2.068177E-008	-6.476158E-005	7
	12	20	63140.62	121.3146	-699.3967	1	709.8401	-80.15961	1.255516E-008	-7.202639E-005	7
	13	22	50203.12	128.3831	-877.892	1	887.2297	-81.68003	8.773071E-010	-8.765299E-005	7
	14	23	39890.62	137.6117	-1101.713	1	1110.274	-82.88023	6.52354E-009	-7.795463E-005	7
	15	24	31640.63	151.4716	-1384.286	1	1392.549	-83.75542	3.587171E-009	-9.343809E-005	7
	16	26	25171.88	171.2519	-1732.181	1	1740.626	-84.35381	2.626162E-009	-8.39835E-005	7
	17	27	20015.62	199.577	-2168.224	1	2177.39	-84.74095	1.555666E-009	-8.488267E-005	7
	18	29	15890.62	236.0854	-2712.605	1	2722.859	-85.02592	3.008349E-010	-8.789594E-005	7
	19	30	12609.37	280.5436	-3400.472	1	3412.025	-85.2837	7.954382E-009	-7.805142E-005	7
	20	31	10078.13	342.864	-4218.076	1	4231.987	-85.35296	9.133887E-009	-8.240373E-005	7
	21	33	8015.625	488.1955	-5241.856	1	5264.541	-84.67916	1.216966E-009	-7.751126E-005	6
	22	34	6328.125	620.3612	-6583.323	1	6612.487	-84.61679	8.466428E-010	-8.258306E-005	6
	23	36	5015.625	803.8551	-8225.265	1	8264.452	-84.41821	9.19913E-010	-8.700111E-005	6
	24	37	3984.375	1037.034	-10230.88	1	10283.31	-84.2121	1.204149E-009	-7.653936E-005	6
	25	38	3170.956	1344.983	-12689.46	1	12760.54	-83.94969	8.125305E-010	-7.588464E-005	6
	26	40	2527.573	1780.615	-15713.91	1	15814.47	-83.53513	8.256569E-010	-7.608149E-005	6
	27	41	1976.103	2333.62	-19800.13	1	19937.17	-83.2782	8.256564E-010	-8.764949E-005	6
	28	43	1577.524	3090.413	-24384.68	1	24579.74	-82.77708	1.185079E-009	-8.37893E-005	6
	29	44	1265.625	4070.321	-29843.57	1	30119.87	-82.23344	8.452914E-010	-8.698933E-005	6
	30	46	998.264	5361.763	-37097.53	1	37483	-81.7759	4.230168E-010	-8.587348E-005	6
	31	47	796.875	7399.757	-45363.11	1	45962.68	-80.73535	2.188753E-010	-8.796185E-005	5
	32	48	627.7902	9754.61	-56284.61	1	57123.63	-80.16781	3.180963E-010	-7.247004E-005	5
	33	50	505.5147	12527.59	-68385.39	1	69523.39	-79.61903	-5.528666E-011	-2.338974E-005	5
	34	51	397.9953	16566.6	-84629.75	1	86235.99	-78.92419	-8.421697E-011	-3.049952E-005	5
	35	53	315.5048	21772.36	-103906.3	1	106162.8	-78.16555	-3.539918E-011	-2.572391E-005	5
	36	54	252.4038	28462.93	-126260.9	1	129429.4	-77.2962	-7.252429E-011	-3.198572E-005	5
	37	55	198.6229	37984.11	-155295.2	1	159873	-76.2557	-6.115816E-011	-3.22893E-005	5
	38	57	158.3615	50240.82	-188066.4	1	194661.5	-75.04305	-8.637702E-011	-3.124579E-005	5
	39	58	125.558	66458.48	-228371.2	1	237844.8	-73.77443	-5.341802E-011	-2.963337E-005	5
	40	60	100.4464	87326.41	-273841.4	1	287428.3	-72.31282	-9.762358E-011	-3.539833E-005	5
	41	61	79.00281	118168.7	-330125.7	1	350637.8	-70.30515	-5.065292E-011	-3.77344E-005	5
	42	63	63.3446	159789	-388599.6	1	420169.2	-67.64793	-4.370834E-011	-5.353749E-005	4
	43	64	49.86702	206272.4	-461449	1	505453.7	-65.91486	-3.53816E-011	-5.104464E-005	4
	44	65	39.72458	270415.8	-537384.1	1	601586.6	-63.28811	-3.721491E-011	-4.367567E-005	4
	45	67	31.6723	349915.5	-618783.4	1	710868.3	-60.5123	-4.179929E-011	-4.817313E-005	4
	46	68	24.93351	452613.6	-705232.5	1	837980.9	-57.30792	-4.258194E-011	-5.253176E-005	4
	47	70	19.86229	568926.5	-799938.8	1	981621	-54.57909	-1.566507E-011	-4.827719E-005	4
	48	71	15.83615	712229	-865607	1	1120958	-50.55215	3.94099E-012	-4.824121E-005	4
	49	72	12.40079	888668	-945678.3	1	1297705	-46.78014	-3.039518E-011	-4.64393E-005	4
	50	74	9.93114	1068445	-986370	1	1454132	-42.71267	-3.983989E-011	-4.385057E-005	4
	51	76	7.944915	1263499	-1003153	1	1613302	-38.44776	-3.003293E-011	-3.691109E-005	4
	52	77	6.317385	1463346	-1002670	1	1773902	-34.41856	-3.863559E-011	-4.35516E-005	4
	53	79	5.008013	1657045	-964199	1	1917154	-30.1942	-2.40603E-011	-3.80031E-005	4
	54	82	3.945707	1841869	-904432.5	1	2051946	-26.15291	-2.024754E-011	-4.140963E-005	4
	55	85	3.158693	1988946	-815170.6	1	2149514	-22.2863	-3.034914E-011	-4.484577E-005	4
	56	88	2.504006	2109913	-719852.4	1	2229332	-18.83842	-3.240035E-011	-3.303462E-005	4
	57	91	1.998082	2262356	-663261.4	1	2357577	-16.33971	-2.047802E-011	-3.801801E-005	4
	58	94	1.584686	2344244	-567288.1	1	2411907	-13.60359	-3.193945E-011	-6.393233E-005	4
	59	98	1.266892	2318598	-452790.4	1	2362396	-11.05001	-3.0499E-011	-4.989828E-005	4
	60	102	0.999041	2371360	-382477.7	1	2402007	-9.162354	-7.361954E-012	-4.135986E-005	4
	61	106	0.7923428	2448742	-330091	1	2470890	-7.677207	-4.376574E-011	-8.921883E-005	4
	62	112	0.633446	2500208	-285899.4	1	2516501	-6.523452	-2.572947E-011	-9.060996E-005	4
	63	120	0.5040323	2497719	-225143.5	1	2507845	-5.150703	-7.394569E-011	-9.346911E-005	4
	64	129	0.400641	2514105	-188893.7	1	2521191	-4.296763	-5.593129E-011	-9.042449E-005	4
	65	140	0.316723	2539311	-158136.3	1	2544230	-3.563509	-5.102677E-011	-8.69717E-005	4
	66	154	0.2520161	2520760	-127228.9	1	2523969	-2.889406	-6.843774E-011	-8.250406E-005	4
	67	171	0.2003205	2528863	-109644.8	1	2531239	-2.482639	-4.201553E-011	-8.807743E-005	4
	68	191	0.1588983	2589216	-89686.96	1	2590769	-1.983855	-4.684524E-011	-8.41881E-005	4
	69	216	0.1260081	2706735	-88997.26	1	2708197	-1.883203	-5.013365E-011	-8.552334E-005	4
	70	246	0.1001603	2681975	-67999.93	1	2682837	-1.45239	-3.826527E-011	-9.038208E-005	4
